! Micran, Research & Production Company
! Date: 2025-04-17 13:53:53
! Frequency	S11	S21	S12	S22
# Hz S dB R 50
1000000000  -96.4883811911    155.368058442   -0.00202082687277 -0.0750362523034 -0.00539178910146 -0.023599312242  -102.518433619    77.9738393391
1095000000  -91.4024957712    164.132210726   -0.00228164415442 -0.0377252193495 -0.00528533073678 -0.125599104429  -92.0150492683    145.309992972
1190000000  -89.5042590165   -48.0391441974    0.0054055107059  0.0333237003753  0.0159908202892  0.0973511996697 -95.2675878188   -60.6155756838
1285000000  -85.1834561033    86.2402132983   -0.0113610296158  0.0456412145353 -0.0320279485871 -0.0408138696553 -88.5821232493    101.870597729
1380000000  -104.504443896    133.565824016   -0.00287329292453  0.0692867881879  7.34577771738E-5 -0.0909385493667 -102.854480552   -161.305524114
1475000000  -85.6116798008   -105.266741667    0.0192204710535  0.0303547440789  0.0144888562191 -0.0641255463944 -87.6490399147   -102.692814415
1570000000  -83.098427334    -29.3062200697    0.0136903868056  0.103756596829   0.000981228256564  0.159726797441  -83.6981629532   -19.8365078056
1665000000  -91.2913973583   -103.582611095    0.0102889655466  0.110567961506   0.00516323781634 -0.11435862587   -91.527967879     165.406475018
1760000000  -83.9396855393    174.447961037    0.0099871275583  0.015028532764  -0.00535886552026 -0.232888140274  -87.5472294539   -155.022594302
1855000000  -76.6412239039   -69.142747771     0.0110868878654 -0.0113968461425  0.0477591577699  0.291773568935  -77.0010609362   -62.5698302338
1950000000  -83.8380514986   -139.726712741   -0.00464353747982  0.00340454480684  0.0299590099802 -0.110508216345  -87.982461462    -120.819882972
2045000000  -103.633063519   -126.21197237    -0.00313401880251  0.0474015553377  0.00576763489894 -0.0538192210862 -85.8607460686   -143.900920799
2140000000  -91.4175271782    165.286838894    0.00504798777835  0.088741941209  -0.00422759427574 -0.163152525215  -89.3008370367    154.905494717
2235000000  -77.6411235778   -108.354675468    0.0131714239039 -0.0763745243144  0.039981059691   0.0929048396456 -77.5018483327   -96.6142495263
2330000000  -87.6555601759    117.097811909    0.0140730816277  0.0201347666795 -0.0245606255021 -0.101487617859  -84.4025101556    127.456215545
2425000000  -93.9329552971   -29.5547633791   -0.0113466682387  0.00878536031655  0.0119108557863  0.0406091505593 -100.04209126    -70.4099040523
2520000000  -94.965785808     160.65555671     0.00141039589467 -0.00424169749547 -0.000520922113871 -0.0375614110962 -87.5843008565    69.2522617385
2615000000  -77.8627613989    49.2229986305   -0.00586464666663  0.036257109146  -0.0379695827659  0.0196657559121 -78.3478990207    66.761306285
2710000000  -80.1191800698    179.521647154   -0.00789899719607  0.067864633543   0.0252152953071 -0.255217626877  -80.3158072246    157.389485692
2805000000  -72.4214827966   -142.4100746      0.0166799193653 -0.0352900183495  0.0572990483459 -0.122973638979  -73.6802299699   -135.607162509
2900000000  -74.6406016292    139.574456831   -0.0125147756493 -0.0550937276027  0.00813832240609 -0.331682167529  -73.8303247547    132.572799459
2995000000  -72.8521354222    43.0760579644   -0.0171906419134 -0.0339269287575 -0.0526444535127  0.100091891707  -74.9826204344    24.9715586345
3090000000  -80.7037701556    152.193120834    0.000655157272947 -0.0831410589743  0.00527535912055 -0.0957656714021 -82.1325754221    144.660878348
3185000000  -73.9867412475   -49.4722226929    0.00265174268681  0.115291358581   0.00435024380106  0.271047277151  -75.3740958744   -75.3944521414
3280000000  -68.0142936659    98.5661379707   -0.00259309017493  0.00805279449736 -0.0669171917693 -0.616273923784  -67.7342041639    94.6105122228
3375000000  -70.8122077271    178.122754534    0.00483298669237 -0.0117295275365  0.052888315702  -0.369508752756  -72.0273945229    164.331090391
3470000000  -72.2692898264   -155.876400271    0.0122887729575  0.14120596678    0.0526471106192 -0.275299674115  -74.0730286866   -170.350104321
3565000000  -70.5443972301    141.446119602    0.0261338140064 -0.0280531617696 -0.00859262163516 -0.499353054463  -70.2602387011    134.250103616
3660000000  -74.764468133     128.273921868   -0.0130471466756 -0.0623747730856  0.0140365458754 -0.26648551317   -73.0382774109    116.737700982
3755000000  -75.6378165556    179.066185617   -0.00627631430813 -0.0210100880856  0.0422256899873 -0.150614384134  -75.108002516    -145.609607047
3850000000  -74.9553744896   -6.56287819574   -0.0125067121373 -0.0251904150002 -0.024094772619   0.22703385273   -76.7640333141   -28.7692677754
3945000000  -80.0755590327   -54.2681089208   -0.0134231841183 -0.0833149245759  0.0112939157802  0.25510781207   -76.245229587    -81.6270499027
4040000000  -76.1315703915   -76.7095407118    0.000191262186326  0.0607817253067  0.0108412833771  0.199195729091  -75.6936700129   -90.9237149183
4135000000  -81.6630984813   -140.786818289   -0.00634805840559  0.0756949746066  0.027340824525  -0.0450753729858 -77.2046274303   -169.756914003
4230000000  -77.8254160959   -75.5587029758   -0.00535659550359  0.0881395365541  0.0114693116731  0.12755220694   -85.9615785198   -21.7014838072
4325000000  -74.3485969966   -102.028630413   -0.0013040030118 -0.00541719147396  0.0295474451915  0.270299414302  -75.8298863375   -85.4305999275
4420000000  -85.9738355729   -172.904278142    0.00369742222433  0.0581334411355  0.0089035743764 -0.0784492678202 -100.33404364     1.18997830954
4515000000  -88.635665621     18.9879785863   -0.00622348097402  0.0418173529033 -0.00326804154033 -0.0417251264651 -99.1478868413   -33.1028466129
4610000000  -81.3523746871   -101.121084227    0.013051847595   0.0155487204395 -0.002613001915   0.113574245685  -82.5266227914   -59.3069028818
4705000000  -69.6285836327   -116.95632282     0.00659743265655  0.0664318710068  0.0504514734572  0.351805748853  -70.3562349228   -124.011300578
4800000000  -82.7144547695   -172.029327708   -0.017082114368   0.0747348587652  0.0360591853955 -0.0848321323274 -79.7698463904    169.662282418
4895000000  -72.8281780528   -70.3584897787   -0.0100459374811  0.00702111861396  0.00107085563914  0.383678365717  -75.508828618    -82.2323774508
4990000000  -77.8025432149   -166.594699435    0.0118148877657  0.00175940513196  0.0220350694917  0.017276350024  -76.4434331536   -178.987889341
5085000000  -75.6598163497   -110.855954631    0.00711495563139  0.00460442319684  0.0131715364375  0.251178894493  -73.8304525166   -125.192710005
5180000000  -79.4681211587    2.52891243987   -0.00463449317409  0.0221764327226 -0.0238811223684 -0.015597753091  -78.9885674654    15.2112818753
5275000000  -85.3159899054   -123.861709729   -0.00344234468887 -0.0141237108658  0.0122997362602  0.0916435474496 -84.5276379491   -156.818713886
5370000000  -73.9735450033   -161.374508732    0.00537725898553  0.071266189301   0.0471532264367  0.0394747247564 -72.780497998    -166.519721708
5465000000  -72.9619058365   -93.322226226     0.00762901965634 -0.0197276068088 -0.00444541375317  0.435420658144  -76.3655910355   -89.9226084834
5560000000  -80.5147014481   -104.670279547    0.00131215936323  0.0118822442327  0.00429791142373  0.161248704414  -79.7422497555   -124.601554677
5655000000  -75.096181848    -103.146643214   -0.019975065057   0.141236442449   0.0279176140547  0.194309414261  -75.6485655295   -115.493635521
5750000000  -86.0579832165   -57.1852268653   -0.00948855027787  0.031919589742   3.93469665499E-5  0.0433982312259 -85.6985682715   -172.523372778
5845000000  -73.0931318339    118.694022346    0.0484976363655  0.0538944869487 -0.00796370396953 -0.409504839604  -75.0251776958    89.924157286
5940000000  -67.8006468372   -125.088209253    0.0193685664614  0.0689503334535  0.0343903985207  0.68730248494   -66.3615506151   -121.148395256
6035000000  -74.6470112748   -143.241887155    0.0101858442432  0.0964274802867  0.0293201482934  0.197744876674  -73.951286107    -164.217157173
6130000000  -79.2797244305   -25.7909721953    0.00616998840637  0.0730463876803 -0.0412168317137 -0.0224700049992 -79.3718788862   -19.8449039742
6225000000  -82.8204739411    129.944280986    0.0313781781388  0.067694202615  -0.0113439448931 -0.161046047373  -77.7389208823    89.6957122188
6320000000  -69.6865483495   -137.231369545   -0.0015326072482  0.0565405084311  0.0608601080044  0.592318842892  -68.6890444222   -129.046216722
6415000000  -77.4453922614    14.5698593835    0.00354138269291 -0.0819746711619 -0.045423447463  -0.0912215265509 -80.350585576     5.0092194845
6510000000  -88.9969491364   -125.514735536    0.00713847171447 -0.0553485982177 -0.00330933817726  0.140128399656  -82.9292462061   -126.374630646
6605000000  -80.9943758862    172.661833021   -0.00113144502065 -0.0269575382802  0.0355592445578  0.0757480426635 -81.9689959135    175.76351601
6700000000  -79.2039881621   -134.862410659    0.00408331067202  0.0910637813318  0.0149194420112  0.1808890017    -76.9812878824   -138.394596906
6795000000  -76.5828353913   -138.141100836    0.00320806594464  0.0692913355791  0.0261389909354  0.310563565263  -77.2678034874   -131.212793104
6890000000  -82.073076698    -26.5779932935   -0.0159875364287  0.00469207735971 -0.0205416905557  0.0161554097163 -80.0198654701   -40.4667376542
6985000000  -84.0753380417   -87.8020895059   -0.0132614993493  0.0216259667884  0.000167638336554  0.166537715862  -89.1818647308   -108.315032762
7080000000  -80.7573717568   -162.347457538   -0.00064717395706  0.0186600604547  0.0393084115152  0.206497401537  -81.1406600745   -156.68263795
7175000000  -83.9142004718   -129.503760289   -0.0112114777233  0.0514540089736  0.0212421469621  0.193038341566  -81.4121235438   -136.707858729
7270000000  -92.8136623295    174.915108501   -0.00588292611498 -0.0397884821658  0.0202275897485  0.0701642795509 -85.3973996271   -157.906738556
7365000000  -88.2138081073   -80.2951092485   -0.0192223060886  0.0277349315761  0.00425561787145  0.129122375096  -82.9612451122   -114.500274459
7460000000  -92.08242424      171.821383965    0.00311683730921  0.00837077760212  0.0163212847791  0.0195326253526 -91.8190479346    176.606174125
7555000000  -90.5783670136   -124.602224821    0.00217061294708  0.160018902935   0.00510624791321  0.00614727777281 -102.6251105     -112.783885234
7650000000  -89.8055872168    152.021111695   -0.012918713377   0.0889208335343  0.0431387439148 -0.140502892694  -85.2853782012    123.160882009
7745000000  -92.2963748352    13.8876106001   -0.00657600709868 -0.00679397287623 -0.0172232922388 -0.0643911860392 -93.0670255786   -20.7644673042
7840000000  -87.1217394552    157.093630894    0.00300781089504 -0.0516062141368  0.044591237224  -0.0725661093431 -88.1582527886    171.834043084
7935000000  -84.879070444    -150.622432089    0.024007633834   0.0358857954885  0.0431799382036  0.175609115669  -86.5793747301   -137.166346382
8030000000  -91.5532622234   -90.9606139488   -0.000126908104013 -0.014887318058   0.00958977258113  0.232283643294  -88.3678683668   -88.1973870575
8125000000  -86.9998865543   -28.4192188796   -0.00905925696583  0.0487862515861 -0.0290394695579  0.255363088284  -87.819107264    -24.6422226852
8220000000  -89.5940114398    46.9123551923   -0.00835763916093 -0.129540649276  -0.0318970520417  0.052951132005  -95.2103914028    22.6653565333
8315000000  -104.144389716    72.2622692111   -0.00536136613411 -0.0145629173308 -0.000981945257061 -0.0147884306092 -102.874530502    22.2615515232
8410000000  -85.6190688754   -25.2106390891   -0.000113827931484  0.124170394711  -0.0200297151744  0.223580591424  -87.1817878797    12.3168654572
8505000000  -83.158533987     15.3008516923   -0.000872687072153  0.179290903951  -0.0561379506831  0.0748800256512 -82.8318249259    37.4262262544
8600000000  -84.8127424594    54.0666251375    0.0218639717795  0.0387973540201 -0.0731624267755 -0.0490493503747 -84.2072875161    38.3162086905
8695000000  -83.0528316647    65.2508592378   -0.0166476973199 -0.0231510632205 -0.039428746413  -0.0459911648376 -83.0751519715    56.3991222016
8790000000  -79.7907480998   -5.9501177185     0.00449300104333  0.0943072318332 -0.0383363465201  0.345465145494  -80.5843116005    2.12541096445
8885000000  -79.6212656265   -19.5155654997    0.0126609670732  0.0479528787983 -0.0283646110314  0.406453590403  -78.4213197452   -20.8105528082
8980000000  -83.6454286252   -2.31171262179   -0.00364593231203  0.0534526359276 -0.0164564622351  0.181392551409  -81.8387757583   -4.51275750728
9075000000  -82.4544557695    67.8212813797   -0.00673436309664 -0.0576316027052 -0.0365831276882  0.00681094718233 -81.4747113701    69.5145950605
9170000000  -84.2962957498   -15.7059846421    0.00372943647325  0.00840800714047 -0.0133211632884  0.204669902495  -84.4030491798   -2.41192774828
9265000000  -78.6203417151   -59.7037748726    0.0116104125802  0.161948974162   0.0151286990353  0.192581024671  -79.9274612869   -64.5538741242
9360000000  -79.6085234068   -34.839201534     0.0054971329508  0.0937939230721 -0.00457920413982  0.243288053724  -81.7679956076   -19.5380728288
9455000000  -90.5758485397    44.2402096899    0.00675743273499 -0.021207597988  -0.0200544828906  0.0374759128758 -87.8004221053    6.79615223283
9550000000  -92.938250789    -18.3223473977    0.0183687792773 -0.016145072654  -0.0214323609548  0.0786537270904 -91.9307178132    8.26757747644
9645000000  -77.5445064189    9.43192686622    0.0044464997793  0.127396634282  -0.044850289635   0.120392576324  -77.6910419162    35.5917944561
9740000000  -78.6140331043   -1.41034185967    0.00490371839869  0.0479841734653 -0.0332806015325  0.19889763322   -78.410940902    -11.903729122
9835000000  -81.0372212286   -67.7726182197    0.00448112505628  0.0538027661691  0.0111079880397  0.14253482603   -79.4241469258   -79.3722758386
9930000000  -77.1457631948   -9.14849277543    0.00121535419657  0.0636090435244 -0.0285659006447  0.229572793845  -78.1307333898   -27.4695573471
10025000000 -80.5360820116    112.118258974   -0.00749202527579  0.0116396503569 -0.00669290164034 -0.213119941178  -82.8934060347    124.129335748
10120000000 -80.1043667089    101.796287866    0.00291715880598  0.0617010361103 -0.0224858085714 -0.254542196505  -85.338305029     101.020749637
10215000000 -87.022770596     87.14803657      0.00839216361701  0.0599724154068 -0.0195942667783 -0.129243320555  -81.4392405381    51.3701967101
10310000000 -93.1745119853   -20.8240707405    0.0192488534703  0.0982013896932 -0.022613334874  -0.0544350632177 -86.9704973745    41.191872608
10405000000 -83.5886878591    44.6210730344    0.00677080514415  0.0802050349989 -0.0286200497227 -0.092294718458  -80.4816351708    47.9072710268
10500000000 -81.873759076    -1.41646476048   -0.0027179454774  0.0128409247887 -0.0175524281512  0.0971126715049 -83.9749068375    1.68576926659
10595000000 -80.3796563072   -89.5333283347    0.00801416753882  0.153911230167   0.00993978824441  0.00831713622823 -88.0375333351   -112.19429757
10690000000 -77.6413901407    6.30517060484    0.00135151840285  0.0144241521915 -0.0375617114738  0.113568739106  -81.4529924283   -2.17325944235
10785000000 -82.8521202535   -151.056686323    0.005647669552  -0.0333859023272  0.0161966908175  0.0226921341787 -84.9271794717    179.627550183
10880000000 -83.0212272593    134.303464395   -0.00219649672553  0.0645370918457  0.00725335138088 -0.202655233089  -81.2016812434    149.184008422
10975000000 -78.5494081458    71.395866289    -0.000308261489175 -0.0346415430578 -0.0263317909993 -0.123214313192  -78.9058243318    84.8930671052
11070000000 -80.8686095716    158.319480082   -0.0134663886889 -0.0394370920273  0.0312846909207 -0.0955443020671 -80.3099860164   -162.670005776
11165000000 -88.496343167     24.6850013827   -0.00553649623074  0.021035309695  -0.00574374352456 -0.0187126966559 -93.8451624215    26.3082217502
11260000000 -73.4209530379    146.092935044    0.00127081805728 -0.0577288570509  0.0328625932086 -0.300960001325  -73.5260929748    141.574458836
11355000000 -83.5732058008    178.214103774    0.00464547155056  0.0367742692339  0.0136629224749 -0.0923399164979 -79.2548541028   -164.88592829
11450000000 -70.1257844997    128.130463843    0.00674702406016 -0.0331459606408  0.022558295539  -0.560862486303  -70.1242785503    129.980085141
11545000000 -75.1502710053    38.8034907937    0.00344260077088  0.0104399554353 -0.0545409071743 -0.12779495803   -72.8346383206    33.6340132208
11640000000 -88.1180952768    17.5713677347    0.00728223009694 -0.0207552555711 -0.0193808029143  0.0193676107319 -92.0238725932    152.484503127
11735000000 -74.5411207517    141.915317421    0.0200386313346 -0.119758355957   0.0142902973431 -0.192381405671  -74.3714094498    133.318277765
11830000000 -77.4837194603    69.2250639585   -0.0127447680914  0.124362442789  -0.0106520931089 -0.355588722052  -76.6294592882    77.9879963216
11925000000 -79.9845004864    130.192074078   -0.00879397711773 -0.0204981162144  0.0236898410926 -0.16496123005   -79.3589886236    143.213743629
12020000000 -75.3862641141    173.413742627    0.0277838270576  0.0114017801303  0.0249188995724 -0.114665163758  -74.4804075579    165.951382572
12115000000 -80.2212271625    20.7886123274    0.00484284611615  0.18717442964   -0.0364723698637 -0.229414716682  -75.1709859961    50.5540005742
12210000000 -74.5043511154   -178.511281558    0.00752252796826  0.0431287746549  0.0552719182488 -0.0901542902461 -77.9497150747   -153.249678183
12305000000 -82.0417580037    179.282181516    0.0123502844723  0.12036687885    0.0145769249281 -0.142545750492  -80.3244698714   -176.77195434
12400000000 -73.3297927302    158.159839909    0.0116151551892  0.0475687476331  0.0562076575635 -0.271464120363  -71.5048511987    149.184016287
12495000000 -83.3731038306   -115.284311702   -0.0124677923108 -0.234003755345   0.02461045071    0.377949740571  -79.0991426209   -105.427187738
12590000000 -71.2118808157   -110.330426818    0.0253994062098  0.111469855314   0.0150250116714  0.510879375092  -71.7356245517   -110.040438147
12685000000 -75.9389955255    122.593049473   -0.00152638152282 -0.0444985704951  0.0339647692513 -0.30468253602   -79.7402712573    126.637014367
12780000000 -78.2198792956    112.440348905    0.0114233330342  0.04833076335    0.00706070028205 -0.346233928037  -76.0148921207    112.282810092
12875000000 -73.3164869924    143.291526582   -0.0181431116766 -0.0162479611054  0.0914540570387 -0.329661198386  -71.4228189058    149.831037002
12970000000 -76.1176117327    126.082066756    0.00527107051857 -0.0309852092741  0.0354886042499 -0.320422570783  -81.5387012217    124.161529159
13065000000 -78.3062169712    169.212004759    0.00235301140283 -0.155185987272   0.051471329565   0.0963134614633 -83.0083625304   -171.322955117
13160000000 -74.4581317245    149.965802631   -0.00395680230307  0.0381442869447  0.0814673466691 -0.321318510735  -75.1895984501    139.760254872
13255000000 -78.9952346463   -171.507150425    0.00608352412565  0.0418515000726  0.0486376465691  0.0216484399454 -79.5280778916   -178.603646447
13350000000 -86.7450852479   -130.012151529    0.00305036923414  0.0432379290153  0.0124969606355  0.0775096838967 -84.3986515037   -128.802932717
13445000000 -86.8552441669   -167.02175542     0.00934598930547  0.0427674935901  0.0150340411773 -0.00480117184043 -87.0481968799   -161.963710174
13540000000 -88.1315613128   -97.5445367365   -0.0013638598403  0.0634997292411  0.00559190339386  0.0851100690836 -85.5528871302   -96.336778397
13635000000 -90.5696270443   -160.796195167    0.00548756305563  0.0400749211943  0.0121900763524 -0.00334453118075 -91.8847199004   -151.630989481
13730000000 -91.6756046104   -165.629194749    0.00351865642328  0.125275170882   0.0133334523368 -0.105928647772  -92.1263637008    163.34621617
