! Micran, Research & Production Company
! Date: 2025-04-14 15:06:58
! Frequency	S11	S21	S12	S22
# Hz S dB R 50
40000000     3.56760633348   -42.6104930542   -200 0 -200 0 -5.88009872957   -1.48010152474
139800000    5.39923114024   -3.19728679526   -200 0 -200 0 -6.02177494619    152.612264642
239600000    19.2114704029    85.8858307684   -200 0 -200 0 -3.02851370049   -165.658201206
339400000    12.8988305322    139.566677037   -200 0 -200 0 -19.0121050019   -48.0548786182
439200000   -3.93285094957   -16.1277381034   -200 0 -200 0 -5.82995432674    159.71586959
539000000    1.62276195073   -82.4452225932   -200 0 -200 0 -2.30605402641   -109.460136682
638800000    6.27096370242   -16.4242836111   -200 0 -200 0  1.45258085604   -93.8103599784
738600000   -4.26995804232    12.6823409701   -200 0 -200 0  0.599999680873   140.165472387
838400000    4.10240657076    141.170042302   -200 0 -200 0 -7.31973117012    174.987608645
938200000    9.92894105724   -102.225727852   -200 0 -200 0  8.76752375047    47.9509822855
1038000000  -3.02342495118    28.3864863218   -200 0 -200 0  1.54524617101    137.530270754
1137800000   3.01481502924    38.7172590322   -200 0 -200 0 -1.21391704248   -71.8884860701
1237600000   3.01063922667    157.688175008   -200 0 -200 0  18.151397446    -139.188900123
1337400000  -0.80576560008    13.5864977866   -200 0 -200 0  3.01503255075   -164.238532075
1437200000  -1.24124957986   -27.2831900634   -200 0 -200 0 -5.2427542606    -73.6298540986
1537000000   3.31978834968   -84.3112662407   -200 0 -200 0  2.47609984654    41.1710142252
1636800000  -2.0531077101     70.3541614445   -200 0 -200 0  6.58920037925    119.63092521
1736600000   5.10160667449    88.9640358101   -200 0 -200 0 -7.98002795649    85.1452517994
1836400000   2.25734331828    7.80998297588   -200 0 -200 0 -8.06236794408   -165.626574242
1936200000   0.728382515596   41.0011165467   -200 0 -200 0  4.75934016158   -82.8613872497
2036000000   2.70037922077    3.45051299875   -200 0 -200 0  22.2929205235   -34.8596777664
2135800000  -3.32886183315    71.0024030054   -200 0 -200 0  16.1391367999   -39.5109549976
2235600000  -0.813948210063   58.4977366346   -200 0 -200 0  18.5505347058   -117.272607095
2335400000   1.23341160587    66.2049442908   -200 0 -200 0 -1.17165097581   -155.451679709
2435200000  -0.0856795336115  91.5496427978   -200 0 -200 0  0.531871950226  -156.858484488
2535000000   5.4586646474     85.0144505644   -200 0 -200 0  3.91303450897   -34.9450706907
2634800000   5.89525715384    43.5082509665   -200 0 -200 0  7.87192604793    44.5573789983
2734600000   4.15100251664    46.5249652176   -200 0 -200 0  5.67773954172   -86.0537872295
2834400000  -0.0831230842739  36.8511257205   -200 0 -200 0  5.72868839209   -113.309247247
2934200000  -6.69447291465   -4.52430602648   -200 0 -200 0  2.09670426701   -87.4113998048
3034000000  -12.2673244364   -64.814254743    -200 0 -200 0  7.78258961644    166.739782696
3133800000   4.89395242321    92.8271763389   -200 0 -200 0  2.22714639435   -4.17282167842
3233600000  -0.495641245592   103.556491907   -200 0 -200 0  8.64224436317    142.205223151
3333400000  -1.4884121236     90.850693316    -200 0 -200 0 -0.497027840419  -108.47996042
3433200000   2.82349409538    96.0507319324   -200 0 -200 0  3.18913436302    27.0877698688
3533000000   3.07000940622    65.1070447116   -200 0 -200 0  10.7938579602   -161.134401492
3632800000   7.32745462235    34.9786052099   -200 0 -200 0  1.21339850355    48.622615991
3732600000   3.13336920725    16.1334649778   -200 0 -200 0  1.20572934555   -158.170398466
3832400000   6.10994114317   -51.0595958152   -200 0 -200 0  12.2388183013    20.5443550918
3932200000   7.15806985975   -99.3433415976   -200 0 -200 0  1.95493954575   -10.5747542512
4032000000   9.82028748726    81.4394792594   -200 0 -200 0  0.310171310604  -73.1867718549
4131800000   5.23083478463    63.9313161866   -200 0 -200 0 -1.89086637686   -73.8155923266
4231600000   3.57797185845    52.411887053    -200 0 -200 0  3.08732153275   -111.086064878
4331400000  -4.20485287649    28.8672415778   -200 0 -200 0  14.1641001498    134.25568699
4431200000   2.53180925541    11.6797008224   -200 0 -200 0 -3.14508045508    18.2026848575
4531000000   5.92209466017    47.2410383542   -200 0 -200 0  3.18220594732    137.960976745
4630800000   2.53449301647   -8.62262882262   -200 0 -200 0 -2.03176693414    124.460209409
4730600000   7.73467735665   -41.4668151779   -200 0 -200 0 -8.90103113339   -161.00795354
4830400000   14.754480288    -127.915862869   -200 0 -200 0 -8.58169455077    125.288049551
4930200000   11.6557290484   -5.2537517086    -200 0 -200 0  5.83018683639    32.164042557
5030000000   17.1510768763   -59.9948852213   -200 0 -200 0  2.65047065245    54.5466429011
5129800000   4.08980796363    24.0595500016   -200 0 -200 0  2.9367560509    -156.61268987
5229600000  -9.82028597269   -112.155688379   -200 0 -200 0  19.6739774001    163.952021029
5329400000  -21.7659687433   -47.5167020328   -200 0 -200 0 -11.7515653779   -145.07510198
5429200000  -1.6649643659     78.43035056     -200 0 -200 0  11.4497443565   -148.740256441
5529000000   32.3645214234   -174.225434448   -200 0 -200 0  5.00164386288    25.8140932632
5628800000   20.2934312079   -24.3795857704   -200 0 -200 0 -7.33231448285    75.1001174742
5728600000   14.2763815561    146.766660529   -200 0 -200 0  0.139925918002  -17.8528542913
5828400000   19.9587152853    43.5370238966   -200 0 -200 0  1.69690471753   -102.058541416
5928200000   8.74103901184    78.860240958    -200 0 -200 0  5.56819524407   -33.2570025418
6028000000   2.65459031495    62.7012085053   -200 0 -200 0 -1.17772894019   -105.427810542
6127800000   10.4943197107   -10.1258214866   -200 0 -200 0  10.089926508    -35.1301178873
6227600000   11.9180242241    54.580959786    -200 0 -200 0  9.98369345623    38.9581689077
6327400000   17.0982448818    58.2633024934   -200 0 -200 0 -7.51696347363   -34.0269806456
6427200000   13.4977646694    18.5149160972   -200 0 -200 0 -12.2033302199   -112.537845136
6527000000   9.9583560085    -90.2335146527   -200 0 -200 0  7.42674308403   -97.8294262972
6626800000   11.9450188433    144.304745622   -200 0 -200 0  9.06286336467   -21.1947506811
6726600000   9.87957510137    85.2481358425   -200 0 -200 0 -3.13624240708   -111.951275082
6826400000   14.1276069929    31.753734852    -200 0 -200 0  3.37412145038   -98.0741894801
6926200000   10.2548898493    15.4704885283   -200 0 -200 0  2.93778238772   -146.34212982
7026000000   20.7823292948   -15.0746106492   -200 0 -200 0 -9.23515564613   -96.7777674843
7125800000   5.84597715625    55.1389843427   -200 0 -200 0  2.52727536602   -153.922759275
7225600000   13.285685391     63.6410507787   -200 0 -200 0  0.120705791065  -84.717278098
7325400000   9.93662869219    175.815042902   -200 0 -200 0 -9.58031648488    21.2522765159
7425200000   20.7151182118    65.4130493989   -200 0 -200 0  0.384108291761   65.0143793278
7525000000   13.17830874      40.3446624409   -200 0 -200 0 -1.86895112027   -29.4472512885
7624800000  -2.80345649615   -172.255914921   -200 0 -200 0  13.2212645848    175.611189344
7724600000   9.30898293527   -61.6477653859   -200 0 -200 0  26.9298158657   -97.388838658
7824400000   13.9703286181    61.4514230671   -200 0 -200 0  1.24371837675   -113.532771239
7924200000   10.2311353609    30.5022317187   -200 0 -200 0  0.543876921318  -100.376642781
8024000000   12.3580895203   -18.278378423    -200 0 -200 0  0.183605062827  -99.3872602869
8123800000   17.1583238781    43.4454257953   -200 0 -200 0  2.50315257414    68.537325405
8223600000   14.0515546984    100.066822772   -200 0 -200 0  0.0480417668082 -84.6399954772
8323400000   4.30007082428    89.6794998214   -200 0 -200 0  2.01869264431    89.730083944
8423200000   3.33508211829    33.948493987    -200 0 -200 0  1.04876974387    113.362121302
8523000000   2.86876276052    72.9043330814   -200 0 -200 0  0.827109880672  -79.7520591397
8622800000  -0.605232573933   133.975355812   -200 0 -200 0  13.8552968116   -110.624606551
8722600000  -5.34108691495   -141.522334435   -200 0 -200 0  11.3007129326    152.573781647
8822400000   11.4823796877    6.30467525442   -200 0 -200 0  2.61419130083    105.606193632
8922200000   12.4037660522   -87.4821371842   -200 0 -200 0  5.00841088646   -107.139733633
9022000000   20.5162034929    135.325575679   -200 0 -200 0 -1.2897873954    -81.7248758585
9121800000   4.27474896962    104.228976711   -200 0 -200 0  0.255029966925  -69.1678391548
9221600000   9.13562600293    105.021127135   -200 0 -200 0  13.5886937802    98.5299764827
9321400000   1.62418011403    49.9982007285   -200 0 -200 0 -0.442132707098  -71.9544660899
9421200000   15.0333579248    131.632142487   -200 0 -200 0 -15.2847826936    79.4784575707
9521000000   0.300783212678   18.0965448066   -200 0 -200 0  11.237834132     162.356145697
9620800000   4.75142843322    136.005095823   -200 0 -200 0  1.87933058671   -52.1061025776
9720600000   0.257299491448   167.120375711   -200 0 -200 0  18.9300423287   -91.9497841026
9820400000   10.3083936682    76.2444201679   -200 0 -200 0  7.04526616444    143.078622526
9920200000   8.66923876029    85.5434824417   -200 0 -200 0  5.85934979757    121.347979781
10020000000  15.8275642778    127.964998587   -200 0 -200 0 -8.50328382018    90.4248450284
10119800000  6.07199214455    109.433017559   -200 0 -200 0 -6.05567236488    121.784561153
10219600000  14.1154035062    58.0672441713   -200 0 -200 0  1.97348696926   -31.9591741831
10319400000  8.67910637158    96.3413044271   -200 0 -200 0 -8.08488810257   -41.4956033538
10419200000  9.625188857     -136.94727115    -200 0 -200 0  4.27556927823   -54.288224285
10519000000  5.55930010451    140.554227521   -200 0 -200 0 -1.4260399352    -67.7592652313
10618800000  2.13412551071   -161.726382304   -200 0 -200 0  21.6302100448    105.240364474
10718600000  10.4983280885    152.459836395   -200 0 -200 0  5.84633340151   -4.94681604609
10818400000  7.06611867194   -139.409932425   -200 0 -200 0  4.75699502433   -42.2569536922
10918200000  4.2105847775    -11.3269499867   -200 0 -200 0 -5.12404456002    66.8179379537
11018000000 -5.17483518221    21.4286399476   -200 0 -200 0  13.38234067      170.078243317
11117800000 -2.52995315114   -41.7123097891   -200 0 -200 0  0.0115868094468 -39.2521855502
11217600000 -1.81731792696   -35.5896653024   -200 0 -200 0  4.57858739937   -171.026082692
11317400000  26.7142865088   -110.480680624   -200 0 -200 0  10.7047120242    149.88522306
11417200000  3.01374538156   -97.855933558    -200 0 -200 0  15.5964590103    114.656465086
11517000000  8.32361275789    162.963639543   -200 0 -200 0  2.41269069203    91.5256909995
11616800000  6.4692937317     136.451882698   -200 0 -200 0  0.0276975724727  87.2070394481
11716600000  9.75861208588    169.720773291   -200 0 -200 0  7.24777205514   -75.188726444
11816400000  12.4695513327   -39.2573292816   -200 0 -200 0  8.85563672797   -68.7374489946
11916200000  1.48399483399   -93.1304413339   -200 0 -200 0  7.02786916261   -106.731467969
12016000000  11.764848475    -107.263454184   -200 0 -200 0 -1.13255889674   -78.2665975018
12115800000  13.0057740233   -104.418812874   -200 0 -200 0  13.6361011529    172.337441682
12215600000  6.78182306712   -25.3907588623   -200 0 -200 0  1.2702292666    -6.46140071161
12315400000  7.56073756184   -17.3416029421   -200 0 -200 0 -0.10078930204    147.633497343
12415200000  1.1097721233     13.8511964967   -200 0 -200 0  5.26182285292   -22.4648286291
12515000000 -3.02064828623   -71.6881535334   -200 0 -200 0  3.78769704675   -19.6953960237
12614800000 -2.51709272511   -35.6724222651   -200 0 -200 0  2.68731168336    62.5814300616
12714600000  0.301231410978  -52.3294968318   -200 0 -200 0 -6.8732101238    -60.9583167788
12814400000 -0.205864726762  -47.5818686268   -200 0 -200 0 -0.568766965635   5.80175986891
12914200000  1.93283653985   -44.8723575731   -200 0 -200 0  0.4343589716    -167.3891562
13014000000  2.00254778825   -30.8537710391   -200 0 -200 0 -0.643085943454  -40.7415196375
13113800000  1.29625480799   -30.121640187    -200 0 -200 0 -7.94651396628   -11.5624939067
13213600000  1.48075165868   -19.8951252643   -200 0 -200 0  8.29319377925   -166.956521079
13313400000  0.319859823667  -21.4956742113   -200 0 -200 0 -0.666055440301  -12.0603338724
13413200000  0.80608843269   -19.3845989116   -200 0 -200 0 -1.85696021337   -48.0915653615
13513000000  1.48935197625   -7.01669787549   -200 0 -200 0 -0.969662573633  -21.2967033908
13612800000 -0.261725518621  -7.21106615833   -200 0 -200 0 -0.468698522925   140.890403432
13712600000 -1.0246421465    -16.5482833429   -200 0 -200 0 -0.311855652568  -1.97567541009
13812400000 -0.0167271914507 -14.1977871267   -200 0 -200 0 -0.384273162865   4.12912628322
13912200000  0.159779437702  -16.2596526278   -200 0 -200 0  5.71303851008    6.65276918178
14012000000 -0.331988523173  -11.5752264769   -200 0 -200 0 -0.0443832585218 -11.5121586777
14111800000  0.0357159561673 -13.2804408376   -200 0 -200 0 -1.13268177458   -3.2821314777
14211600000  0.89265367081   -12.7199618068   -200 0 -200 0 -0.0117502306061 -16.4572646435
14311400000  0.955497301445  -6.54175519081   -200 0 -200 0 -0.527808414421  -7.23855878036
14411200000  0.439246444895  -0.752162523764  -200 0 -200 0  0.608655829721  -6.68221426317
14511000000  0.333446359405  -2.38100579475   -200 0 -200 0  1.29258077018    106.034863367
14610800000  0.363737678573  -2.1590809296    -200 0 -200 0  0.35743617426   -38.2212524829
14710600000  0.199474665664  -0.00379071484944 -200 0 -200 0 -10.0694573935   -66.5141388375
14810400000  0.841591547358   2.29903696674   -200 0 -200 0  1.51771519421    9.80533075858
14910200000 -0.933634292986   4.39340412325   -200 0 -200 0 -0.723021978463   12.2829383212
15010000000 -0.201801727374   3.41246657966   -200 0 -200 0  7.01206739056    65.0851255319
15109800000 -0.0859024499979 -1.83615435089   -200 0 -200 0 -3.85945371924    10.0214580432
15209600000  0.388797098489   6.12091834922   -200 0 -200 0  3.66950334062    77.5493895869
15309400000 -0.163996347688   5.05429334785   -200 0 -200 0  2.79705392662    9.4667772354
15409200000 -0.375970841154   7.20296391893   -200 0 -200 0 -0.158073238343   4.43011795633
15509000000 -0.00644606347639  6.63408768711   -200 0 -200 0  8.43577148663    19.3482945636
15608800000 -0.217830146525   9.35988372524   -200 0 -200 0  0.417129370735   25.6519864252
15708600000 -0.17244399769    10.1437656202   -200 0 -200 0 -2.1876981733    -5.2014757923
15808400000 -0.795531787998   9.93759992282   -200 0 -200 0  0.818113874462   60.357399648
15908200000 -0.706605362026   11.2588564157   -200 0 -200 0 -2.15022132406    2.04661386939
16008000000 -1.10030925263    10.0287368531   -200 0 -200 0  9.3724676216     30.3555310192
16107800000 -1.23455357113    10.2929413115   -200 0 -200 0 -10.9654496964    80.0938926993
16207600000 -1.13574360808    8.02098030338   -200 0 -200 0 -0.629310632357   18.5724371441
16307400000 -1.21265489228    9.4810097984    -200 0 -200 0 -0.867010472586   23.6341424683
16407200000 -1.31398777697    10.4138850204   -200 0 -200 0 -4.75671027072    53.469720665
16507000000 -1.43137485274    11.0303441979   -200 0 -200 0 -3.16621338663    7.33860546951
16606800000 -1.53088200389    13.1301053171   -200 0 -200 0 -0.137732702543   48.5204630931
16706600000 -1.84040855871    11.5767722017   -200 0 -200 0 -1.0483824262     19.8710162433
16806400000 -1.99927324414    14.6028390239   -200 0 -200 0  0.260767986805  -9.10965727033
16906200000 -2.21295069155    16.4032033262   -200 0 -200 0 -1.69313037514    19.5027514225
17006000000 -2.4113503807     16.9689906775   -200 0 -200 0 -7.04150062861   -51.2629959275
17105800000 -2.58605859767    17.4466127535   -200 0 -200 0 -2.51855177005    37.3136488413
17205600000 -2.42942347421    13.6581509468   -200 0 -200 0 -0.24593388534    28.7372975913
17305400000 -2.32601889413    8.95865207847   -200 0 -200 0 -3.45361231875    23.0495867145
17405200000 -1.64412626814   -8.29513145032   -200 0 -200 0 -0.532873988672   65.421978004
17505000000 -1.83675113018   -7.52152592489   -200 0 -200 0 -0.957625372578   20.5536673151
17604800000 -2.20133158977    2.98042268379   -200 0 -200 0  0.0063191634717  16.6179719989
17704600000 -1.62209418114   -2.57260192848   -200 0 -200 0  1.25220326395    27.6490563431
17804400000 -1.9296278596    -2.03669154555   -200 0 -200 0  0.0309083148086  36.0877469583
17904200000 -2.34441566486    4.37409310788   -200 0 -200 0  5.48512326552    19.5318744422
18004000000 -1.61035133465    9.90239629698   -200 0 -200 0 -2.25539353147    31.4283703063
18103800000 -2.01260727241    12.123919432    -200 0 -200 0  0.271972854542   34.2111609598
18203600000 -1.78397482846    16.3626048005   -200 0 -200 0 -3.34762198894    47.7927154803
18303400000 -1.4202232339     34.5798565022   -200 0 -200 0 -3.24019599788    44.5718600452
18403200000 -1.41163098083    37.3095299086   -200 0 -200 0  0.0419731998221  22.0230198002
18503000000 -0.949120977988   37.7473214275   -200 0 -200 0  0.436871308107   70.9653385963
18602800000 -1.30927757915    39.9530292644   -200 0 -200 0 -0.724586555905   39.1880320918
18702600000 -0.78986698664    38.1095358072   -200 0 -200 0 -1.0368803549     38.8878260181
18802400000 -0.938621901488   37.6912442251   -200 0 -200 0  2.0371160831     73.9164510851
18902200000 -0.0349523530344  38.9180171042   -200 0 -200 0 -7.72329357871    20.891832964
19002000000 -0.0376285289136  40.5052719873   -200 0 -200 0 -0.182843892229   47.6153579493
19101800000  0.506099683418   42.2240353468   -200 0 -200 0  0.760773846896   22.3834269746
19201600000  0.573638515974   43.6860920701   -200 0 -200 0  1.01794662573    53.6786554263
19301400000  0.728327574859   45.8635163884   -200 0 -200 0 -7.66371617754   -6.96420012394
19401200000  0.506976777085   50.7934599285   -200 0 -200 0  3.54750659355    73.5295038037
19501000000  0.453281845653   50.2572815035   -200 0 -200 0  0.657231163116   49.6919446063
19600800000  0.254183122941   51.3140593478   -200 0 -200 0 -1.05903066865    74.4117800748
19700600000  0.448426890416   51.4381114515   -200 0 -200 0 -2.59097382414    73.058957324
19800400000  0.548750104238   53.5179139235   -200 0 -200 0 -1.50316569965    58.7280322909
19900200000  0.732705622556   54.6888602241   -200 0 -200 0  0.303885214416   59.2470196832
20000000000  1.0485737921     57.2622886135   -200 0 -200 0  6.83667607873    21.6006559367
