! Micran, Research & Production Company
! Date: 2025-04-14 14:16:15
! Frequency	S11	S21	S12	S22
# Hz S dB R 50
40000000    -12.7815815178   -129.490123776   -200 0 -200 0 -2.87511109225    146.276133314
139800000   -12.7813867837   -129.489242324   -200 0 -200 0 -2.88158578628    146.291602101
239600000   -12.7810764211   -129.487095379   -200 0 -200 0 -2.87669145844    146.295648599
339400000   -12.7809976107   -129.48488076    -200 0 -200 0 -2.88150587697    146.267360478
439200000   -12.7811237747   -129.482960354   -200 0 -200 0 -2.87748134914    146.295862303
539000000   -12.7811989611   -129.481647476   -200 0 -200 0 -2.87343225185    146.241988471
638800000   -12.7813704264   -129.480401009   -200 0 -200 0 -2.87995460191    146.281102273
738600000   -12.7817535525   -129.480076442   -200 0 -200 0 -2.87268457796    146.300633118
838400000   -12.7821053325   -129.479927837   -200 0 -200 0 -2.87779629255    146.202600394
938200000   -12.7822817338   -129.480952772   -200 0 -200 0 -2.87517509644    146.296966452
1038000000  -12.7824919268   -129.483146971   -200 0 -200 0 -2.8652088546     146.361936846
1137800000  -12.7826430707   -129.484552026   -200 0 -200 0 -2.87550766761    146.253251341
1237600000  -12.7825388309   -129.486062972   -200 0 -200 0 -2.87274493251    146.338124089
1337400000  -12.7824696421   -129.488559958   -200 0 -200 0 -2.840970621      146.690536066
1437200000  -12.7823387706   -129.489526626   -200 0 -200 0 -2.87330570487    146.304208865
1537000000  -12.7819937578   -129.490009874   -200 0 -200 0 -2.87501916088    146.391420036
1636800000  -12.7816637757   -129.49115233    -200 0 -200 0 -2.87794820671    146.196159714
1736600000  -12.7814202786   -129.489659982   -200 0 -200 0 -2.87335862135    146.350550972
1836400000  -12.7810706394   -129.488075504   -200 0 -200 0 -2.89478506135    146.414015766
1936200000  -12.780915376    -129.486113179   -200 0 -200 0 -2.87010543153    146.292603593
2036000000  -12.7810153423   -129.483209242   -200 0 -200 0 -2.88127452578    146.399721951
2135800000  -12.7811948616   -129.480995286   -200 0 -200 0 -2.89942886887    146.237139696
2235600000  -12.7815632998   -129.479802506   -200 0 -200 0 -2.87518682632    146.403068088
2335400000  -12.7818790468   -129.479565419   -200 0 -200 0 -2.89113577528    146.373390793
2435200000  -12.7821977155   -129.480648182   -200 0 -200 0 -2.76359123872    146.853688799
2535000000  -12.7825148168   -129.481441374   -200 0 -200 0 -2.88660358573    146.390651919
2634800000  -12.7825281818   -129.483348351   -200 0 -200 0 -2.89540361843    146.347887003
2734600000  -12.7826466391   -129.48552297    -200 0 -200 0 -2.89006211692    146.43456224
2834400000  -12.7826566873   -129.48698762    -200 0 -200 0 -2.89036071054    146.366049565
2934200000  -12.7823346027   -129.488472338   -200 0 -200 0 -2.89606653028    146.333196306
3034000000  -12.7822088637   -129.49063023    -200 0 -200 0 -2.89307264623    146.385448933
3133800000  -12.781942532    -129.490756611   -200 0 -200 0 -2.89013613253    146.339797438
3233600000  -12.7814743102   -129.490033546   -200 0 -200 0 -2.89748056236    146.294290388
3333400000  -12.7811809982   -129.490191242   -200 0 -200 0 -2.89067679777    146.35218802
3433200000  -12.781063095    -129.487703569   -200 0 -200 0 -2.88895970727    146.30984848
3533000000  -12.7809047917   -129.484610009   -200 0 -200 0 -2.89866867747    146.299088196
3632800000  -12.7809365909   -129.483069929   -200 0 -200 0 -2.88788375394    146.327092162
3732600000  -12.7813192862   -129.480568827   -200 0 -200 0 -2.88701965394    146.277930777
3832400000  -12.7815736622   -129.478703534   -200 0 -200 0 -2.88995580301    146.32914958
3932200000  -12.7819609027   -129.47950248    -200 0 -200 0 -2.88604338406    146.303369983
4032000000  -12.7823204054   -129.480686223   -200 0 -200 0 -2.89379504519    146.27749078
4131800000  -12.7824397055   -129.481488788   -200 0 -200 0 -2.88684410762    146.310436779
4231600000  -12.7826107529   -129.484442092   -200 0 -200 0 -2.88551703284    146.279953994
4331400000  -12.782599081    -129.486125366   -200 0 -200 0 -2.88885551014    146.302163561
4431200000  -12.7825467313   -129.487665758   -200 0 -200 0 -2.88526562021    146.29188184
4531000000  -12.7823892812   -129.489760204   -200 0 -200 0 -2.88725044172    146.27517538
4630800000  -12.7821684685   -129.490224883   -200 0 -200 0 -2.88601710248    146.284028721
4730600000  -12.7818772113   -129.491174064   -200 0 -200 0 -2.88411137787    146.283126088
4830400000  -12.7815360786   -129.490556841   -200 0 -200 0 -2.88442887095    146.270667078
4930200000  -12.7811533271   -129.488964522   -200 0 -200 0 -2.88498707586    146.281132659
5030000000  -12.7809496959   -129.487615546   -200 0 -200 0 -2.88188221968    146.274220732
5129800000  -12.7809784838   -129.484063522   -200 0 -200 0 -2.88278125193    146.256916683
5229600000  -12.7810269608   -129.480710257   -200 0 -200 0 -2.88242421175    146.281435889
5329400000  -12.7813407221   -129.480320599   -200 0 -200 0 -2.87924710444    146.256313621
5429200000  -12.7818311695   -129.479680063   -200 0 -200 0 -2.88336893001    146.255947035
5529000000  -12.7821501081   -129.479057862   -200 0 -200 0 -2.8791297327     146.277184752
5628800000  -12.7823509504   -129.481187002   -200 0 -200 0 -2.87856571771    146.208731743
5728600000  -12.7826292951   -129.482758609   -200 0 -200 0 -2.88164232371    146.265281719
5828400000  -12.7827355296   -129.48434649    -200 0 -200 0 -2.86657900799    146.268526262
5928200000  -12.782609381    -129.486700902   -200 0 -200 0 -2.8824451719     146.212358417
6028000000  -12.7825007147   -129.488303452   -200 0 -200 0 -2.87165014456    146.27307606
6127800000  -12.7823302564   -129.489699592   -200 0 -200 0 -2.80945170722    146.012840732
6227600000  -12.7819904298   -129.490511844   -200 0 -200 0 -2.87172554484    146.249010929
6327400000  -12.7816237566   -129.491119877   -200 0 -200 0 -2.84674066681    146.390529139
6427200000  -12.7812795444   -129.490418687   -200 0 -200 0 -2.86636667846    146.137867713
6527000000  -12.7809974223   -129.487804452   -200 0 -200 0 -2.85182388162    146.37828263
6626800000  -12.7808442982   -129.485598173   -200 0 -200 0 -2.97264303927    149.295393924
6726600000  -12.7809276978   -129.484170444   -200 0 -200 0 -2.84545337559    146.478743267
6826400000  -12.7811870997   -129.481147122   -200 0 -200 0 -2.88894657404    146.607734004
6926200000  -12.781439493    -129.479077147   -200 0 -200 0 -2.86471343091    146.828477766
7026000000  -7.04838951992   -121.438685559   -200 0 -200 0 -10.4214733459    31.0097642516
7125800000  -3.58291073176   -120.969422212   -200 0 -200 0 -8.86480036612    150.934266914
7225600000  -1.45221491686    178.481625948   -200 0 -200 0 -16.1621804334   -38.7890063871
7325400000  -18.5302977474    32.3761274101   -200 0 -200 0  1.52135919909   -118.877351396
7425200000  -8.0922686783     18.9586488085   -200 0 -200 0 -8.99713939251   -72.7830308374
7525000000  -11.4166386172   -32.131834851    -200 0 -200 0 -2.64017391781    54.2999948149
7624800000  -0.613139939993   119.981801567   -200 0 -200 0 -4.29923383401    15.1731721013
7724600000  -7.09660379605   -108.858496454   -200 0 -200 0 -12.9719920589    128.88315627
7824400000  -1.42736548101    57.2545186338   -200 0 -200 0 -5.63317762292   -35.8129598367
7924200000  -8.72147970107   -150.021648524   -200 0 -200 0 -14.4747017745   -37.492708284
8024000000  -5.8086495155    -25.3177386114   -200 0 -200 0  2.97830238003   -49.1833669382
8123800000  -14.1058704792    10.1191924459   -200 0 -200 0  7.96115450333    89.4580694104
8223600000  -10.1989530354    44.0020624168   -200 0 -200 0 -11.5512604876    123.274488997
8323400000  -2.14994979274    130.519086011   -200 0 -200 0 -4.45476597554    108.57740277
8423200000   2.24363995464    175.263525729   -200 0 -200 0 -9.61986674664    159.427563578
8523000000  -6.09875380195   -103.866505004   -200 0 -200 0  2.79157080301    52.7982145357
8622800000  -23.0563675043    39.6059736593   -200 0 -200 0 -4.09771817746    126.568910064
8722600000   4.63547412167    154.893316461   -200 0 -200 0 -5.71291411399    149.147032513
8822400000  -11.2336252453   -98.7965641529   -200 0 -200 0 -16.5265561138    97.5973513803
8922200000   2.04903981121   -72.9881261371   -200 0 -200 0 -11.0403850377    150.480106815
9022000000  -13.8775417714   -135.504849552   -200 0 -200 0 -13.0824700269    111.626915762
9121800000  -6.98286872543   -36.1314519894   -200 0 -200 0 -0.769067183657   168.337421737
9221600000  -23.1633746168   -26.4270371651   -200 0 -200 0 -10.6350439044    55.5109609848
9321400000  -0.833963861605   28.4934911788   -200 0 -200 0 -10.453483514    -106.844459905
9421200000  -1.64310597413   -167.614971261   -200 0 -200 0  1.23012631914   -109.664032951
9521000000  -3.97551278288    82.1732505403   -200 0 -200 0 -6.36682155445    165.173123572
9620800000   4.27763646235    4.973448037     -200 0 -200 0 -6.30597569613   -97.8175383405
9720600000  -2.00630017648    175.994249312   -200 0 -200 0 -3.721510701      29.3998698546
9820400000  -6.53554549496   -173.125005592   -200 0 -200 0 -8.92938500713   -83.5722658893
9920200000   0.951684819444  -61.6806360272   -200 0 -200 0 -1.44979166266    126.660419485
10020000000 -41.7680660447    70.9244457886   -200 0 -200 0 -6.46853017747    156.718168192
10119800000 -8.11485983684   -13.4695668565   -200 0 -200 0 -5.69273542557    125.567467181
10219600000 -9.52342373386   -138.147379904   -200 0 -200 0 -5.83508937394    153.82816767
10319400000 -13.5688062863    49.994562329    -200 0 -200 0 -9.82860508962   -158.402325513
10419200000  1.26643044606   -72.5223038443   -200 0 -200 0 -6.44012318248    80.4040211746
10519000000  1.90231273819   -40.2104831269   -200 0 -200 0 -10.6566025073    178.505986018
10618800000 -8.01305261074    165.614294097   -200 0 -200 0 -9.64830709774    120.785177211
10718600000 -4.66419165584   -11.8073679121   -200 0 -200 0 -10.1726445761   -42.5431546396
10818400000 -20.3628720064    138.250516755   -200 0 -200 0 -1.07428097896    170.204898165
10918200000 -8.33812393623   -171.26714648    -200 0 -200 0 -10.3494180381    38.8433930652
11018000000 -10.811704566     117.326310758   -200 0 -200 0 -10.7507488651   -73.8879357352
11117800000 -1.6007599521    -21.9076701539   -200 0 -200 0  5.4299853527     47.7316327159
11217600000 -3.51482542701   -178.631931721   -200 0 -200 0 -5.31456993409    97.8917919799
11317400000 -4.00286297428   -88.291010209    -200 0 -200 0 -6.36585752719    168.372775748
11417200000 -8.64640111407    5.79010859827   -200 0 -200 0  4.30809056766   -17.3954868634
11517000000 -1.3282350236    -99.3105157872   -200 0 -200 0 -2.51697968946   -164.445307206
11616800000 -1.99350926265    109.881492401   -200 0 -200 0 -0.350730686606  -116.055379377
11716600000  18.2797650737   -136.921564059   -200 0 -200 0 -13.3228529281   -126.854865127
11816400000  0.0692157672374  107.10821977    -200 0 -200 0 -6.44517112617    154.430309911
11916200000 -6.23733307812    35.1846756701   -200 0 -200 0 -4.06836251368   -1.81564415193
12016000000 -2.52912151923    129.00715592    -200 0 -200 0 -3.20305827494    61.0739184625
12115800000 -13.7888521275   -18.6068160659   -200 0 -200 0 -1.24251840254    144.13641356
12215600000 -12.9126058066   -22.5609416319   -200 0 -200 0 -7.09200210242    17.4111082571
12315400000  3.01464842938   -8.91153408419   -200 0 -200 0 -5.09127857613    34.7902713351
12415200000 -3.70038668214   -130.012038185   -200 0 -200 0 -12.1061410797   -53.3315688779
12515000000 -9.25575950153    15.0143560789   -200 0 -200 0 -2.73091720285   -97.0860399647
12614800000 -4.91605694212   -133.324309332   -200 0 -200 0 -7.85273922889    150.434309062
12714600000 -10.0332614669   -67.8892309786   -200 0 -200 0 -0.922929851596   104.747376205
12814400000 -8.99753436749    111.572501284   -200 0 -200 0  6.4746077245     69.1658695162
12914200000 -2.59571368633    6.4410420172    -200 0 -200 0 -3.44560284907   -150.679548913
13014000000 -10.395727163    -78.9616422017   -200 0 -200 0  0.463950108687   35.7684900233
13113800000 -10.3957402394   -78.9564757086   -200 0 -200 0  0.464313552968   35.7712988839
13213600000 -10.3957396096   -78.9527524719   -200 0 -200 0  0.464719608709   35.7665162886
13313400000 -10.3956704918   -78.9553174549   -200 0 -200 0  0.464014459565   35.7694592065
13413200000 -10.3959257561   -78.9510982215   -200 0 -200 0  0.464345277976   35.7739730583
13513000000 -10.3960867084   -78.9489055736   -200 0 -200 0  0.464990972228   35.7590197004
13612800000 -10.3964643965   -78.9465216441   -200 0 -200 0  0.463968145906   35.7728126805
13712600000 -10.3971682314   -78.944504224    -200 0 -200 0  0.463662258685   35.7871803827
13812400000 -10.3978769589   -78.9452839103   -200 0 -200 0  0.464126648933   35.768576256
13912200000 -10.3982784323   -78.9464716793   -200 0 -200 0  0.463548919774   35.7781643059
14012000000 -10.3986968284   -78.9500565628   -200 0 -200 0  0.453911651088   35.7365565364
14111800000 -10.3989983628   -78.9567742421   -200 0 -200 0  0.463722289169   35.775648247
14211600000 -10.3989764624   -78.9575121277   -200 0 -200 0  0.462736612303   35.7832378822
14311400000 -10.3982939998   -78.9656624697   -200 0 -200 0  0.464594541466   35.7710189134
14411200000 -10.3975709717   -78.9694226923   -200 0 -200 0  0.463390193177   35.7791178793
14511000000 -10.3971726282   -78.9660328241   -200 0 -200 0  0.463493073667   35.8182789068
14610800000 -10.3961648822   -78.9654610103   -200 0 -200 0  0.464124385747   35.7767795345
14710600000 -10.3958817979   -78.96379862     -200 0 -200 0  0.463125126577   35.7842298274
14810400000 -10.3959897404   -78.9594305126   -200 0 -200 0  0.470210738654   35.7380838524
14910200000 -10.3957214538   -78.9555090117   -200 0 -200 0  0.464087755018   35.779139769
15010000000 -10.3957738595   -78.9516200093   -200 0 -200 0  0.461178549351   35.7836586373
15109800000 -10.3962092343   -78.9488592419   -200 0 -200 0  0.464733713099   35.763823895
15209600000 -10.3965263141   -78.9450774184   -200 0 -200 0  0.462806709639   35.7857826087
15309400000 -10.3971137704   -78.9438327771   -200 0 -200 0  0.461463052415   35.7650009195
15409200000 -10.3977294988   -78.9455662261   -200 0 -200 0  0.466907829619   35.7829153839
15509000000 -10.3986213562   -78.946288055    -200 0 -200 0  0.461340945142   35.7824679564
15608800000 -10.3988346158   -78.9499533295   -200 0 -200 0  0.462068513692   35.7642148246
15708600000 -10.3989410003   -78.958565647    -200 0 -200 0  0.463825718757   35.7824391157
15808400000 -10.3988858746   -78.9619629828   -200 0 -200 0  0.461757364223   35.7713324355
15908200000 -10.3981953533   -78.9643407255   -200 0 -200 0  0.464172932516   35.7711214355
16008000000 -10.3971797468   -78.967665866    -200 0 -200 0  0.461813150392   35.7817076564
16107800000 -10.3971444994   -78.9674889872   -200 0 -200 0  0.463435325279   35.7653309815
16207600000 -10.3963763218   -78.9643474251   -200 0 -200 0  0.463933787273   35.779475595
16307400000 -10.3958072042   -78.9614484415   -200 0 -200 0  0.462371035037   35.7552006691
16407200000 -10.3958159894   -78.9584139231   -200 0 -200 0  0.4640714025     35.7721450352
16507000000 -10.3956776337   -78.9538476188   -200 0 -200 0  0.465205765558   35.7890794242
16606800000 -10.3956500347   -78.9499970885   -200 0 -200 0  0.464008407825   35.7651310564
16706600000 -10.3961400513   -78.9475346648   -200 0 -200 0  0.464555003545   35.7734381574
16806400000 -10.3967653495   -78.9447186314   -200 0 -200 0  0.466243927652   35.7352356574
16906200000 -10.3974871126   -78.9427349748   -200 0 -200 0  0.463865679509   35.7652860417
17006000000 -10.3981235031   -78.9457449045   -200 0 -200 0  0.465436862012   35.7769593922
17105800000 -10.3985847219   -78.9502254436   -200 0 -200 0  0.462464656305   35.7596069608
17205600000 -10.3989454064   -78.9513579748   -200 0 -200 0  0.464222172747   35.7688782292
17305400000 -10.3991191607   -78.9579426612   -200 0 -200 0  0.456763108459   35.7961677177
17405200000 -10.3986357051   -78.9626296862   -200 0 -200 0  0.463707854023   35.7635150391
17505000000 -10.3984333174   -78.964271299    -200 0 -200 0  0.464588011478   35.7789282067
17604800000 -10.3971788004   -78.9675519589   -200 0 -200 0  0.462713581338   35.7413861055
17704600000 -10.3967080254   -78.9662296162   -200 0 -200 0  0.464246495251   35.772473675
17804400000 -10.3965162583   -78.9650553938   -200 0 -200 0  0.464714374481   35.7840889222
17904200000 -10.3957409603   -78.961584231    -200 0 -200 0  0.464658854091   35.7707782753
18004000000 -10.3955386051   -78.9585787267   -200 0 -200 0  0.464006276675   35.7755696068
18103800000 -10.3957947588   -78.954252424    -200 0 -200 0  0.464372768454   35.7783470151
18203600000 -10.3958334691   -78.9496237497   -200 0 -200 0  0.464131710111   35.7728512812
18303400000 -10.3962241092   -78.9463007787   -200 0 -200 0  0.463729108545   35.7757865456
18403200000 -10.3969008042   -78.9462386465   -200 0 -200 0  0.464767297418   35.7787098813
18503000000 -10.3976038524   -78.9438336762   -200 0 -200 0  0.463692597618   35.7733688006
18602800000 -10.3981027512   -78.9433355452   -200 0 -200 0  0.463565781198   35.7789836746
18702600000 -10.3986817872   -78.9496162738   -200 0 -200 0  0.464333297899   35.769857293
18802400000 -10.3992122262   -78.9547162935   -200 0 -200 0  0.463497150048   35.7762482174
18902200000 -10.3992606531   -78.9556129472   -200 0 -200 0  0.46307919608    35.7900853523
19002000000 -10.3983388746   -78.9645346736   -200 0 -200 0  0.463738978383   35.7747099479
19101800000 -10.3980506706   -78.9673533519   -200 0 -200 0  0.463071611021   35.7792881279
19201600000 -10.3975021323   -78.9666337698   -200 0 -200 0  0.465193172943   35.7845777069
19301400000 -10.3961444409   -78.9655018821   -200 0 -200 0  0.463239895712   35.7776006315
19401200000 -10.3961564722   -78.9644008364   -200 0 -200 0  0.462661651676   35.7810332924
19501000000 -10.3958339997   -78.9596483821   -200 0 -200 0  0.463442681906   35.7788901554
19600800000 -10.3954845244   -78.955516124    -200 0 -200 0  0.462990602235   35.7780639981
19700600000 -10.3956914443   -78.9523871535   -200 0 -200 0  0.462872941349   35.782256157
19800400000 -10.3961058058   -78.9482239309   -200 0 -200 0  0.463131410507   35.7786851043
19900200000 -10.3964313727   -78.9448180336   -200 0 -200 0  0.462827828958   35.7787337839
20000000000 -10.3970072741   -78.9438138102   -200 0 -200 0  0.462925280585   35.7829323892
