! Micran, Research & Production Company
! Date: 2025-04-14 15:17:43
! Frequency	S11	S21	S12	S22
# Hz S dB R 50
40000000     3.43711396126   -42.5595678065   -200 0 -200 0 -6.04007783881   -1.47130932923
139800000    5.59941722725   -3.03844056662   -200 0 -200 0 -5.80472072566    152.779716994
239600000    19.2848340728    85.8990557084   -200 0 -200 0 -2.9391488076    -165.713372001
339400000    12.8930473262    139.194667921   -200 0 -200 0 -18.9673953052   -47.4082979633
439200000   -3.68534288247   -16.1281561965   -200 0 -200 0 -5.42541295025    159.745476079
539000000    1.78842596737   -82.5170475353   -200 0 -200 0 -2.13045094959   -109.668510296
638800000    6.31236630734   -16.4643956699   -200 0 -200 0  1.49750908556   -93.960338168
738600000   -4.35299472386    12.6237279562   -200 0 -200 0  0.569685623593   140.209869093
838400000    4.15573570073    140.857115596   -200 0 -200 0 -7.08021958242    175.204071836
938200000    9.94134828045   -101.929109462   -200 0 -200 0  8.76718245131    48.3422552616
1038000000  -2.93311292981    27.9063303727   -200 0 -200 0  1.58177588225    137.305711783
1137800000   3.03193855517    38.7878753354   -200 0 -200 0 -1.20530974      -71.9173539961
1237600000   2.70783076655    154.539462518   -200 0 -200 0  17.8116839123   -142.629135445
1337400000  -0.807239213737   13.5840977137   -200 0 -200 0  3.01330472678   -164.245305273
1437200000  -1.09694445797   -27.4647499287   -200 0 -200 0 -5.24790171617   -74.0403871488
1537000000   3.33946549344   -84.1736756707   -200 0 -200 0  2.48451363006    41.4107277719
1636800000  -1.99675791033    69.8139632328   -200 0 -200 0  6.67178918488    119.235656396
1736600000   5.34672744872    87.5913642153   -200 0 -200 0 -7.75525108393    85.7416142147
1836400000   2.29313284415    8.08627861442   -200 0 -200 0 -7.92614706351   -165.3346497
1936200000   0.729607601297   41.0792108123   -200 0 -200 0  4.7543879154    -82.8063767297
2036000000   2.59422495625    6.20435227953   -200 0 -200 0  22.2574387825   -32.1022412566
2135800000  -3.30601434347    71.1282594864   -200 0 -200 0  16.1772791253   -39.4625992659
2235600000  -0.660716816949   58.0859761619   -200 0 -200 0  18.7190896738   -117.64014128
2335400000   1.22898118533    66.0151364072   -200 0 -200 0 -1.1653345847    -155.711732531
2435200000  -0.0121945830214  92.0723973607   -200 0 -200 0  0.509003567196  -155.855713641
2535000000   5.48082746631    84.9197106771   -200 0 -200 0  3.9285613728    -34.9965448824
2634800000   5.83317486069    43.7476687143   -200 0 -200 0  7.8116693573     44.8472252406
2734600000   4.12484615682    46.5158911011   -200 0 -200 0  5.63599165761   -86.0587920048
2834400000  -0.0918968436     36.7804950657   -200 0 -200 0  5.72257007254   -113.368314039
2934200000  -6.67997486535   -4.86725191031   -200 0 -200 0  2.11665816199   -87.5740659104
3034000000  -12.392889346    -63.5978267871   -200 0 -200 0  7.8569049566     167.363503807
3133800000   4.78141564811    92.9228235904   -200 0 -200 0  2.18965165351   -3.93183353927
3233600000  -0.330792893646   100.580704435   -200 0 -200 0  8.7700017754     139.714750417
3333400000  -1.43259747856    90.3807036727   -200 0 -200 0 -0.466058404     -108.511535154
3433200000   2.80349032706    96.0242687321   -200 0 -200 0  3.1771100479     27.0731543218
3533000000   3.079478959      64.571467155    -200 0 -200 0  10.8210627661   -161.628884476
3632800000   7.24961088822    34.4415964887   -200 0 -200 0  1.1332929685     47.7536913639
3732600000   3.15059415787    15.0379657815   -200 0 -200 0  1.22934796507   -159.206834294
3832400000   6.07881291403   -51.3362446286   -200 0 -200 0  12.2190261101    20.2495204185
3932200000   7.223306269     -99.1385927773   -200 0 -200 0  2.00978263987   -10.4252289103
4032000000   9.90766052833    81.0689777571   -200 0 -200 0  0.3641565397    -73.4403340921
4131800000   5.25728039187    63.5047400955   -200 0 -200 0 -1.86565443895   -74.2680776732
4231600000   3.58765973641    52.1776529119   -200 0 -200 0  3.10592130374   -111.290420441
4331400000  -4.0872656302     29.1804696113   -200 0 -200 0  14.3629972973    134.039223506
4431200000   2.54894823935    11.6610823164   -200 0 -200 0 -3.13116011997    18.1870413619
4531000000   5.91070127811    47.2129989492   -200 0 -200 0  3.16626501191    137.948444598
4630800000   2.51269484345   -8.74183466758   -200 0 -200 0 -2.05229877144    124.37976484
4730600000   7.93182120872   -41.4141941708   -200 0 -200 0 -8.7123907389    -161.166112456
4830400000   14.806046275    -127.561767441   -200 0 -200 0 -8.52652185961    125.819687505
4930200000   11.8852905335   -5.30067442244   -200 0 -200 0  6.03349884781    32.0098988475
5030000000   17.1673754281   -60.0510734229   -200 0 -200 0  2.66619660512    54.4812483916
5129800000   4.0991197068     24.33137378     -200 0 -200 0  2.93107113382   -156.329632757
5229600000  -9.32889607889   -109.928957456   -200 0 -200 0  20.2736789802    165.430421226
5329400000  -22.4631339588   -50.8448847528   -200 0 -200 0 -11.7243716086   -147.058757746
5429200000  -1.68844341296    79.7110478429   -200 0 -200 0  11.678948956    -145.870495834
5529000000   32.3999170906   -174.472964479   -200 0 -200 0  5.04915006718    25.5777431911
5628800000   20.5504011982   -24.6531671867   -200 0 -200 0 -7.03386307963    74.6128723485
5728600000   14.7457197155    147.023312604   -200 0 -200 0  0.511473336606  -17.773203103
5828400000   19.7803817754    42.8868323066   -200 0 -200 0  1.50464394609   -102.526805376
5928200000   8.78584070293    79.434112403    -200 0 -200 0  5.6375087076    -32.8943672199
6028000000   2.64740275957    62.5946910834   -200 0 -200 0 -1.17598248144   -105.540781352
6127800000   10.5473880826   -10.2839565715   -200 0 -200 0  10.1484533615   -35.2099490311
6227600000   11.9261394079    54.5654278911   -200 0 -200 0  9.99514637832    38.9046499141
6327400000   17.249727406     57.5503271939   -200 0 -200 0 -7.40606578462   -34.0990886699
6427200000   13.8032903185    18.8739908022   -200 0 -200 0 -11.8176478771   -112.996263539
6527000000   10.2121516705   -90.6292743309   -200 0 -200 0  7.66969903285   -98.3401603113
6626800000   12.0308368963    144.165306837   -200 0 -200 0  9.14244740323   -21.3794895521
6726600000   10.425643182     85.7754260585   -200 0 -200 0 -2.82877718821   -111.41886787
6826400000   14.1477408973    31.7895931154   -200 0 -200 0  3.39518646744   -98.0536009616
6926200000   10.26712952      15.721558766    -200 0 -200 0  2.95189603117   -146.114798519
7026000000   20.8502284292   -15.8699618331   -200 0 -200 0 -9.17323669452   -97.7876234544
7125800000   5.90890121354    55.4405307379   -200 0 -200 0  2.61498821116   -153.904709224
7225600000   13.4186356157    63.1908726427   -200 0 -200 0  0.227189444644  -84.8226156094
7325400000   10.0453038799    175.732414273   -200 0 -200 0 -9.31416621191    21.5736997472
7425200000   20.6362584005    65.2273463501   -200 0 -200 0  0.313930891993   64.8240977346
7525000000   13.2743474201    40.7576377787   -200 0 -200 0 -1.77411085193   -29.0694578705
7624800000  -2.61700551409   -176.508140514   -200 0 -200 0  13.3194947228    174.402872606
7724600000   8.98061023643   -57.9982580194   -200 0 -200 0  26.6350173196   -93.3978547416
7824400000   13.8843944853    62.1835329387   -200 0 -200 0  1.15596340436   -112.87009235
7924200000   10.2330400445    30.2151824707   -200 0 -200 0  0.547699715729  -100.606615631
8024000000   12.3118374199   -18.2898959957   -200 0 -200 0  0.154153960273  -99.3461292915
8123800000   17.2682888176    42.7336099501   -200 0 -200 0  2.64905246177    68.2003283418
8223600000   14.0709438596    100.184813187   -200 0 -200 0  0.0662733755316 -84.5356432751
8323400000   4.29701791401    89.5819756252   -200 0 -200 0  2.02294815618    89.6187858785
8423200000   3.3365786382     33.9446043559   -200 0 -200 0  1.04984853349    113.358548297
8523000000   2.86152885546    72.9319546394   -200 0 -200 0  0.825041936634  -79.7243932734
8622800000  -0.466969733231   133.60873159    -200 0 -200 0  14.040738715    -110.889704123
8722600000  -5.19555781741   -140.624364682   -200 0 -200 0  11.3231711013    152.164333232
8822400000   11.4801387891    6.24314949347   -200 0 -200 0  2.60830287054    105.52679143
8922200000   12.3080960268   -86.8526215718   -200 0 -200 0  4.94039853945   -106.638815668
9022000000   20.5246358415    135.353066881   -200 0 -200 0 -1.28169779504   -81.6914758022
9121800000   4.27447584185    104.196326118   -200 0 -200 0  0.254959679038  -69.2090948662
9221600000   8.75882668182    104.63430178    -200 0 -200 0  13.2806985056    98.494524791
9321400000   1.64585559269    49.9135768576   -200 0 -200 0 -0.429826701202  -71.9184194854
9421200000   15.008291317     131.638266535   -200 0 -200 0 -15.3380786642    79.6235892322
9521000000   0.314807652868   18.1761955755   -200 0 -200 0  11.2508201212    162.266971653
9620800000   4.73488976688    136.084897582   -200 0 -200 0  1.86411083987   -52.0791666255
9720600000   0.288499527196   167.041573472   -200 0 -200 0  19.1063895995   -91.3901582914
9820400000   10.1711761735    75.7773302744   -200 0 -200 0  6.92319962358    142.588799797
9920200000   9.42814014601    82.5208091812   -200 0 -200 0  6.59671783365    118.803221037
10020000000  16.0408921865    127.644259067   -200 0 -200 0 -8.40061470783    89.1043812701
10119800000  6.04433495043    109.562957882   -200 0 -200 0 -6.03974756433    121.949408218
10219600000  14.1118281818    58.0456576949   -200 0 -200 0  1.96886165357   -31.9790675283
10319400000  8.69426873135    96.6021286855   -200 0 -200 0 -8.11433087461   -41.3514936701
10419200000  9.62323964596   -136.826373507   -200 0 -200 0  4.27766118872   -54.1627939493
10519000000  5.55922220315    140.554174592   -200 0 -200 0 -1.42611845069   -67.7593059435
10618800000  1.9520237062    -162.059315677   -200 0 -200 0  21.485207079     105.080557645
10718600000  10.5009332377    152.375939289   -200 0 -200 0  5.84822563055   -5.03316758304
10818400000  7.03468580693   -139.611316165   -200 0 -200 0  4.72783796672   -42.3864897955
10918200000  4.55975953761   -12.7258227217   -200 0 -200 0 -4.89223211582    65.7458843608
11018000000 -5.12270514824    22.1753396014   -200 0 -200 0  13.4223368962    170.700409553
11117800000 -2.5100970983    -41.7074035811   -200 0 -200 0  0.0246780368615 -39.1770812387
11217600000 -1.83142567182   -35.8460780126   -200 0 -200 0  4.57414152959   -171.188696422
11317400000  27.6578115438   -106.211059899   -200 0 -200 0  11.6319623727    154.331130527
11417200000  3.86211553216   -97.8831867421   -200 0 -200 0  16.4330884269    114.614212658
11517000000  8.28714683784    163.247436024   -200 0 -200 0  2.39228353639    91.8047576971
11616800000  6.49322347628    136.523150405   -200 0 -200 0  0.0467662684691  87.2909419161
11716600000  9.78718689156    170.694250974   -200 0 -200 0  7.27091187465   -74.2866757432
11816400000  12.4736872049   -39.9023892174   -200 0 -200 0  8.86543004459   -69.4219849831
11916200000  1.5296931755    -93.55406255     -200 0 -200 0  7.11857164359   -106.895026727
12016000000  11.7482745479   -107.041654216   -200 0 -200 0 -1.15165668047   -78.0808832115
12115800000  12.9649657122   -104.642857669   -200 0 -200 0  13.5945763984    172.117979202
12215600000  6.78854772273   -25.3991047767   -200 0 -200 0  1.27778252097   -6.51543408841
12315400000  7.28845724941   -16.7870810515   -200 0 -200 0 -0.262224477677   147.988834825
12415200000  1.11545743735    13.8882169789   -200 0 -200 0  5.26711310037   -22.5162985564
12515000000 -3.06038214229   -71.8289485079   -200 0 -200 0  3.78279677349   -19.9096581568
12614800000 -2.50073682685   -35.8123625282   -200 0 -200 0  2.69677878591    62.5394876923
12714600000  0.287055788751  -52.3597330769   -200 0 -200 0 -6.91277558449   -61.0910533041
12814400000 -0.206063212096  -47.5681367657   -200 0 -200 0 -0.569853864864   5.81922995768
12914200000  1.90333148098   -44.8174652831   -200 0 -200 0  0.410214543454  -167.400755748
13014000000  1.99797604715   -30.8615563736   -200 0 -200 0 -0.642356797165  -40.7684877484
13113800000  1.29740661973   -30.1208207863   -200 0 -200 0 -7.94379998291   -11.563992369
13213600000  1.456665807     -19.6377699324   -200 0 -200 0  8.26919758613   -166.811544409
13313400000  0.319475925026  -21.4979238241   -200 0 -200 0 -0.666410897459  -12.0619859046
13413200000  0.806236714227  -19.3873548575   -200 0 -200 0 -1.8571253551    -48.0945160648
13513000000  1.4894834956    -7.01544898604   -200 0 -200 0 -0.969187201616  -21.2958506591
13612800000 -0.261233749973  -7.20985124898   -200 0 -200 0 -0.468764441443   140.894047781
13712600000 -1.0246256709    -16.5487489532   -200 0 -200 0 -0.311902282862  -1.97604532768
13812400000 -0.0175883527483 -14.1934065259   -200 0 -200 0 -0.38399045005    4.13589589579
13912200000  0.158266156907  -16.2634439053   -200 0 -200 0  5.71216664001    6.65203694237
14012000000 -0.331980043853  -11.5752196046   -200 0 -200 0 -0.0443449241285 -11.5121173269
14111800000  0.0357367041271 -13.2805762283   -200 0 -200 0 -1.13269921253   -3.28235899136
14211600000  0.892454319503  -12.7191004681   -200 0 -200 0 -0.0120044699302 -16.4557448818
14311400000  0.955562807806  -6.54143192961   -200 0 -200 0 -0.527706736308  -7.23887035137
14411200000  0.440565948337  -0.752592518487  -200 0 -200 0  0.609484653503  -6.68939677164
14511000000  0.332986558657  -2.38125743401   -200 0 -200 0  1.29272340278    106.030393683
14610800000  0.363523365654  -2.15851420108   -200 0 -200 0  0.357438870453  -38.2193551081
14710600000  0.200456163442  -0.00479472044322 -200 0 -200 0 -10.0691033521   -66.5533684252
14810400000  0.841585174704   2.29911107186   -200 0 -200 0  1.517732447      9.80548451214
14910200000 -0.93362957673    4.39300599898   -200 0 -200 0 -0.723139517121   12.2829376363
15010000000 -0.201329957602   3.41201494584   -200 0 -200 0  7.0123660691     65.0897722344
15109800000 -0.0857911825024 -1.83505689733   -200 0 -200 0 -3.85952293109    10.0184759862
15209600000  0.389741496707   6.11860659571   -200 0 -200 0  3.66989239084    77.5571873478
15309400000 -0.164472669455   5.05286772981   -200 0 -200 0  2.79680001194    9.46647552628
15409200000 -0.375853351747   7.20326026436   -200 0 -200 0 -0.15810710176    4.42947388208
15509000000 -0.00720288887163  6.6342948102    -200 0 -200 0  8.43613888695    19.3474726377
15608800000 -0.218008268433   9.36078478509   -200 0 -200 0  0.417192537482   25.6497982019
15708600000 -0.172407470118   10.1434464337   -200 0 -200 0 -2.18772059302   -5.20075527777
15808400000 -0.795723780697   9.94855022475   -200 0 -200 0  0.817166154213   60.3478888895
15908200000 -0.706600849711   11.2588526079   -200 0 -200 0 -2.15023386414    2.04671293108
16008000000 -1.10026603166    10.0268709369   -200 0 -200 0  9.37263616133    30.3561308991
16107800000 -1.23462742178    10.2922448426   -200 0 -200 0 -10.964470131     80.0962379592
16207600000 -1.13574268172    8.02101866931   -200 0 -200 0 -0.629359985891   18.5723339326
16307400000 -1.21268046165    9.48094185411   -200 0 -200 0 -0.867041499665   23.6341951484
16407200000 -1.31399041555    10.4138652216   -200 0 -200 0 -4.75674947542    53.4701419746
16507000000 -1.4313777437     11.0303413233   -200 0 -200 0 -3.16620726984    7.33855903024
16606800000 -1.53089391626    13.130475226    -200 0 -200 0 -0.137638177594   48.5205539848
16706600000 -1.84042795116    11.5765299642   -200 0 -200 0 -1.04836413492    19.8707741918
16806400000 -1.99928217717    14.602662403    -200 0 -200 0  0.260761134658  -9.10967481834
16906200000 -2.21297258819    16.4037531752   -200 0 -200 0 -1.69319394178    19.5030894746
17006000000 -2.41135597173    16.969042752    -200 0 -200 0 -7.04149337605   -51.2630831989
17105800000 -2.58607966265    17.4467707016   -200 0 -200 0 -2.51858568088    37.313694624
17205600000 -2.42940898227    13.658434233    -200 0 -200 0 -0.245862299614   28.737564345
17305400000 -2.32600215986    8.9585882718    -200 0 -200 0 -3.4536105886     23.049171157
17405200000 -1.64413993901   -8.29521566728   -200 0 -200 0 -0.532890464901   65.4216887718
17505000000 -1.83667343949   -7.52156494708   -200 0 -200 0 -0.957536503119   20.5526002107
17604800000 -2.20139957897    2.98001066345   -200 0 -200 0  0.00623256262514  16.6182011565
17704600000 -1.62201623034   -2.57235423612   -200 0 -200 0  1.25222935903    27.6485553202
17804400000 -1.92964461867   -2.03710903505   -200 0 -200 0  0.0307962807173  36.0884264397
17904200000 -2.34437516697    4.37408383623   -200 0 -200 0  5.48518091665    19.5317317141
18004000000 -1.61001295972    9.90143436865   -200 0 -200 0 -2.25536534694    31.4238924094
18103800000 -2.01249119235    12.1258881733   -200 0 -200 0  0.272097253823   34.2109148171
18203600000 -1.78439948943    16.3678059414   -200 0 -200 0 -3.34783928496    47.7941708378
18303400000 -1.42009439836    34.5797493584   -200 0 -200 0 -3.24006202834    44.5735568038
18403200000 -1.41152280084    37.3093120182   -200 0 -200 0  0.0420240834846  22.0240151603
18503000000 -0.949047734482   37.7499122962   -200 0 -200 0  0.437250660826   70.9699411809
18602800000 -1.30900884265    39.952696656    -200 0 -200 0 -0.724269086831   39.1891942993
18702600000 -0.790056895228   38.1096915383   -200 0 -200 0 -1.03707373128    38.8869054059
18802400000 -0.938755945485   37.6902078957   -200 0 -200 0  2.03687548155    73.9158086904
18902200000 -0.0341098103377  38.9104952934   -200 0 -200 0 -7.72171362075    20.9012413828
19002000000 -0.0377560708432  40.5054625979   -200 0 -200 0 -0.182967090435   47.6153447927
19101800000  0.505745702789   42.2146655983   -200 0 -200 0  0.760744181388   22.3766022944
19201600000  0.573667459706   43.6863870764   -200 0 -200 0  1.0179847859     53.6788510287
19301400000  0.728644526493   45.8644717548   -200 0 -200 0 -7.66379645816   -6.96252091996
19401200000  0.507366740242   50.7942262531   -200 0 -200 0  3.54796633908    73.5294949971
19501000000  0.452960932873   50.2572079784   -200 0 -200 0  0.656986432251   49.6915570995
19600800000  0.252300136026   51.3135756875   -200 0 -200 0 -1.06148285915    74.4118630023
19700600000  0.448854773506   51.4402888801   -200 0 -200 0 -2.59052438353    73.0628074562
19800400000  0.549066141292   53.5247905257   -200 0 -200 0 -1.50305226425    58.7367680188
19900200000  0.732623859039   54.6844139574   -200 0 -200 0  0.303899590513   59.2428815491
20000000000  1.04923026589    57.2589010816   -200 0 -200 0  6.83710465995    21.5987199073
