! Micran, Research & Production Company
! Date: 2025-04-14 15:17:42
! Frequency	S11	S21	S12	S22
# Hz S dB R 50
40000000    -12.7704099317   -129.363370142   -200 0 -200 0 -2.79734923222    146.477872656
139800000   -12.7859401026   -129.500650483   -200 0 -200 0 -2.88631985223    146.289449615
239600000   -12.7852407358   -130.105057649   -200 0 -200 0 -2.8725789318     146.17522353
339400000   -12.7879997301   -129.49901226    -200 0 -200 0 -2.88937468268    146.285691468
439200000   -12.7804879662   -129.577798607   -200 0 -200 0 -2.88210279098    146.2523882
539000000   -12.7887706288   -129.47474564    -200 0 -200 0 -2.90817602568    146.317086095
638800000   -12.784914048    -129.535641942   -200 0 -200 0 -2.88638671533    146.282110961
738600000   -12.7916617949   -129.458643662   -200 0 -200 0 -2.88920712       145.859460154
838400000   -12.7871426401   -129.513434249   -200 0 -200 0 -2.89255477271    146.295037918
938200000   -12.8008356091   -129.35958722    -200 0 -200 0 -2.88193492488    146.243197762
1038000000  -12.7871097169   -129.496098351   -200 0 -200 0 -2.91347277602    146.437783503
1137800000  -12.8201897842   -129.647333293   -200 0 -200 0 -2.88667650105    146.275828711
1237600000  -12.7879981814   -129.484367375   -200 0 -200 0 -2.85365209863    146.229871945
1337400000  -12.7868441937   -129.544867557   -200 0 -200 0 -2.89452882921    146.301355485
1437200000  -12.787536143    -129.464422306   -200 0 -200 0 -2.88026797784    146.265086287
1537000000  -12.7862670537   -129.524975147   -200 0 -200 0 -2.89557713704    146.586399838
1636800000  -12.7903113935   -129.442511132   -200 0 -200 0 -2.88516788339    146.284476199
1736600000  -12.7867041712   -129.501703152   -200 0 -200 0 -2.86571350288    146.280117384
1836400000  -12.7890082154   -129.344906044   -200 0 -200 0 -2.89240960235    146.305851961
1936200000  -12.7871296195   -129.494795609   -200 0 -200 0 -2.87995752751    146.276681679
2036000000  -12.8030131506   -129.564767296   -200 0 -200 0 -2.89979266101    146.436630069
2135800000  -12.7881359385   -129.480379867   -200 0 -200 0 -2.88521603784    146.284182557
2235600000  -12.7900448526   -129.537453251   -200 0 -200 0 -2.85175005133    146.208015576
2335400000  -12.7902947091   -129.48115432    -200 0 -200 0 -2.8929682427     146.304646271
2435200000  -12.7898802023   -129.506558017   -200 0 -200 0 -2.87980073388    146.254252674
2535000000  -12.79307279     -129.526382769   -200 0 -200 0 -2.91037500723    146.359080724
2634800000  -12.7910277974   -129.489228711   -200 0 -200 0 -2.88869064405    146.257167383
2734600000  -12.7890905      -129.529400499   -200 0 -200 0 -2.86705706682    146.124488719
2834400000  -12.8007810495   -129.433625701   -200 0 -200 0 -2.90266636194    146.276643491
2934200000  -12.7874416225   -129.511284782   -200 0 -200 0 -2.88552460052    146.221561764
3034000000  -12.7840628959   -129.033754037   -200 0 -200 0 -2.86191788762    145.799116901
3133800000  -12.788366166    -129.489045933   -200 0 -200 0 -2.89692238004    146.268876015
3233600000  -12.7614691943   -129.573078803   -200 0 -200 0 -2.87702781197    146.226263327
3333400000  -12.7875121278   -129.468752438   -200 0 -200 0 -2.9185426356     146.378535976
3433200000  -12.782856465    -129.559182989   -200 0 -200 0 -2.88632136328    146.250614674
3533000000  -12.785899285    -129.454497886   -200 0 -200 0 -2.86217650944    146.206033169
3632800000  -12.7856000811   -129.522784985   -200 0 -200 0 -2.89370761086    146.312457122
3732600000  -12.7859893618   -129.437102378   -200 0 -200 0 -2.87690281455    146.258220197
3832400000  -12.786117328    -129.506162182   -200 0 -200 0 -2.90202946254    146.382381944
3932200000  -12.7962106887   -129.425038904   -200 0 -200 0 -2.88597121536    146.264860893
4032000000  -12.7875314892   -129.49471049    -200 0 -200 0 -2.81863151439    146.252745622
4131800000  -12.791428666    -129.568264993   -200 0 -200 0 -2.89199267923    146.301953535
4231600000  -12.7896361176   -129.49902756    -200 0 -200 0 -2.87781446903    146.202716921
4331400000  -12.7913963215   -129.527140815   -200 0 -200 0 -2.90032455367    146.316949435
4431200000  -12.7970815394   -129.543311454   -200 0 -200 0 -2.89069014989    146.244268605
4531000000  -12.7910157162   -129.494283625   -200 0 -200 0 -2.92961705039    145.996955963
4630800000  -12.7908041975   -129.551982684   -200 0 -200 0 -2.90006891214    146.249585708
4730600000  -12.7912229495   -129.447997201   -200 0 -200 0 -2.8935456393     146.223038169
4830400000  -12.7886715724   -129.524442144   -200 0 -200 0 -2.90712546284    146.188360191
4930200000  -12.7878079014   -129.41201014    -200 0 -200 0 -2.89532067545    146.278575057
5030000000  -12.7870673739   -129.497113188   -200 0 -200 0 -2.89224054044    146.192601465
5129800000  -12.7966978331   -129.373947177   -200 0 -200 0 -2.90654632264    146.260454371
5229600000  -12.7863748949   -129.487185838   -200 0 -200 0 -2.89039828435    146.260185292
5329400000  -12.7890650407   -129.578606719   -200 0 -200 0 -2.90753501729    146.165468481
5429200000  -12.7867664345   -129.481276099   -200 0 -200 0 -2.89509934985    146.292869151
5529000000  -12.7853071592   -129.527222084   -200 0 -200 0 -2.88909756987    146.218124479
5628800000  -12.788829972    -129.46651473    -200 0 -200 0 -2.90209374581    146.320376306
5728600000  -12.7856663246   -129.519628882   -200 0 -200 0 -2.89049752617    146.284969445
5828400000  -12.7962845814   -129.459251102   -200 0 -200 0 -2.91613900123    146.389823718
5928200000  -12.7887104169   -129.516345747   -200 0 -200 0 -2.89269892456    146.300457925
6028000000  -12.7998242979   -129.562322935   -200 0 -200 0 -2.8942351116     146.192736796
6127800000  -12.7935880409   -129.50025813    -200 0 -200 0 -2.89712088495    146.32198947
6227600000  -12.7967986389   -129.488971781   -200 0 -200 0 -2.89023129258    146.250039552
6327400000  -12.799411383    -129.490173582   -200 0 -200 0 -2.90277065013    146.336218471
6427200000  -12.7882328019   -129.474535463   -200 0 -200 0 -2.89207727521    146.277031028
6527000000  -12.795754038    -129.547923311   -200 0 -200 0 -2.9009155204     146.278780384
6626800000  -12.7879308835   -129.472653719   -200 0 -200 0 -2.89336107236    146.286887732
6726600000  -12.7868167244   -129.517511929   -200 0 -200 0 -2.89449096787    146.251872782
6826400000  -12.7888924665   -129.450787606   -200 0 -200 0 -2.89537070173    146.291678945
6926200000  -12.7854811931   -129.504998131   -200 0 -200 0 -2.89199826432    146.25559804
7026000000  -7.08345715907   -121.281299118   -200 0 -200 0 -10.41255452      31.1134552396
7125800000  -3.60122958963   -120.870381514   -200 0 -200 0 -8.851119963      150.632154574
7225600000  -1.43079993687    178.254204727   -200 0 -200 0 -16.1020677831   -38.634136578
7325400000  -18.5270547644    32.7969693587   -200 0 -200 0  1.55048421836   -118.73031898
7425200000  -8.07685080465    18.9512868827   -200 0 -200 0 -9.00344274037   -73.0651961279
7525000000  -11.4674173732   -31.8512775598   -200 0 -200 0 -2.60803244237    54.1099752134
7624800000  -0.569818166501   120.157432239   -200 0 -200 0 -4.24942431499    14.8904655236
7724600000  -7.11298089749   -108.849481653   -200 0 -200 0 -12.8985656174    128.888891412
7824400000  -1.37070399629    57.5558546332   -200 0 -200 0 -5.56373318181   -36.1021819656
7924200000  -8.74638071437   -150.217015821   -200 0 -200 0 -14.507467671    -37.3013617508
8024000000  -5.8361976824    -25.3125112098   -200 0 -200 0  3.02303618143   -49.3042053076
8123800000  -14.0564976763    9.95426712962   -200 0 -200 0  7.8637717226     89.1504358471
8223600000  -10.1629901059    44.0107493113   -200 0 -200 0 -11.5491250454    123.661918027
8323400000  -2.16403719177    130.424255691   -200 0 -200 0 -4.48504466973    108.314138577
8423200000   2.19810570259    175.047475659   -200 0 -200 0 -9.64016670465    159.058453954
8523000000  -6.09384773783   -103.981891053   -200 0 -200 0  2.76450063484    52.9255383992
8622800000  -23.0176933047    39.4959824602   -200 0 -200 0 -4.09679773857    126.811148597
8722600000   4.58063747496    154.857550209   -200 0 -200 0 -5.7235762932     148.70987718
8822400000  -11.2616706654   -98.9602000474   -200 0 -200 0 -16.5650954673    97.3014802375
8922200000   2.01073566255   -73.1951940817   -200 0 -200 0 -11.0792342248    150.350451094
9022000000  -13.884408349    -135.355553924   -200 0 -200 0 -13.1070620782    111.75909161
9121800000  -7.00321639339   -36.1378699478   -200 0 -200 0 -0.824299810588   168.120301066
9221600000  -23.2152660418   -26.4910192911   -200 0 -200 0 -10.6886458989    55.4909417767
9321400000  -0.841580195207   28.3444732227   -200 0 -200 0 -10.5013926494   -107.069079019
9421200000  -1.61280483467   -167.534822468   -200 0 -200 0  1.15549414563   -109.706727409
9521000000  -3.98228881408    82.1032832029   -200 0 -200 0 -6.38823902734    164.80897374
9620800000   4.24621195796    4.67838408649   -200 0 -200 0 -6.25511390059   -97.8205652237
9720600000  -2.00603530446    176.207637107   -200 0 -200 0 -3.72146049748    29.6318039134
9820400000  -6.51589389073   -173.301548372   -200 0 -200 0 -9.03755856946   -83.7389225036
9920200000   0.901016164264  -61.7740950708   -200 0 -200 0 -1.4894445279     126.735631035
10020000000 -41.8893977896    72.4871194578   -200 0 -200 0 -6.48930828099    156.77127139
10119800000 -8.13126306863   -13.1865472069   -200 0 -200 0 -5.71699603431    126.189334066
10219600000 -9.59590956149   -138.573059052   -200 0 -200 0 -5.78781964184    153.56574061
10319400000 -13.5231892408    50.1675756727   -200 0 -200 0 -9.91650710649   -158.336567741
10419200000  1.31773900793   -71.8282135036   -200 0 -200 0 -6.38748297958    79.4988641065
10519000000  1.93072791887   -39.2715843168   -200 0 -200 0 -10.6722626692    177.918856623
10618800000 -8.0320808108     165.169714033   -200 0 -200 0 -9.66450731537    119.873278281
10718600000 -4.63741258512   -13.0399989702   -200 0 -200 0 -10.1258082432   -43.2104518104
10818400000 -20.393296646     137.667184228   -200 0 -200 0 -1.02001031718    170.523901802
10918200000 -8.31284669677   -171.176915357   -200 0 -200 0 -10.3289487193    38.1358996387
11018000000 -10.7310527093    117.309766727   -200 0 -200 0 -10.8014570997   -73.0250259586
11117800000 -1.60660827827   -22.1502949359   -200 0 -200 0  5.40932241704    49.6922510256
11217600000 -3.56861715417   -178.578654539   -200 0 -200 0 -5.26116940779    96.790417992
11317400000 -3.97825027284   -88.1886361141   -200 0 -200 0 -6.22747204433    168.039992894
11417200000 -8.67338285773    5.2863612345    -200 0 -200 0  4.24862019995   -17.7366375889
11517000000 -1.31993900818   -99.6134770438   -200 0 -200 0 -2.58879955395   -164.718622081
11616800000 -2.02487783866    109.959776022   -200 0 -200 0 -0.493203082886  -117.53292576
11716600000  18.4011585711   -138.039168836   -200 0 -200 0 -13.3540595494   -127.614694673
11816400000  0.0421215830441  107.111219656   -200 0 -200 0 -6.54790972788    154.477071511
11916200000 -6.24493112974    34.9053767445   -200 0 -200 0 -4.02784562732   -1.35737150366
12016000000 -2.54544398676    129.115740435   -200 0 -200 0 -3.08257586308    61.2386455189
12115800000 -13.7101182024   -18.8053581223   -200 0 -200 0 -1.31734576397    145.181343512
12215600000 -12.9164432337   -22.9861161823   -200 0 -200 0 -6.99991713269    17.9541958402
12315400000  2.83145200446   -10.7710842106   -200 0 -200 0 -5.13904914208    34.9607744096
12415200000 -3.74993094974   -130.077544697   -200 0 -200 0 -12.0518279761   -52.7201759911
12515000000 -9.27869095499    15.2734636782   -200 0 -200 0 -2.74119299275   -96.6354678647
12614800000 -4.90138634859   -133.808633122   -200 0 -200 0 -7.81970354854    150.035495211
12714600000 -10.0848033007   -67.5465179803   -200 0 -200 0 -0.856870594225   104.717026584
12814400000 -9.17804950299    111.741250701   -200 0 -200 0  6.38057097353    69.0436575625
12914200000 -2.58732265924    6.71168256052   -200 0 -200 0 -3.49728574479   -150.571220439
13014000000 -10.3541755297   -78.9922969043   -200 0 -200 0  0.464939826598   35.7484583707
13113800000 -10.3871531565   -78.9598248571   -200 0 -200 0  0.468233103515   35.7790057477
13213600000 -10.3842845676   -78.91907232     -200 0 -200 0  0.459686644929   35.745559616
13313400000 -10.3842099277   -78.9688884776   -200 0 -200 0  0.463989657203   35.7544909347
13413200000 -10.3865126586   -78.9421386232   -200 0 -200 0  0.468052893019   35.7779663065
13513000000 -10.3867465829   -78.9187871954   -200 0 -200 0  0.461498144879   35.7632478649
13612800000 -10.3858239235   -78.919010916    -200 0 -200 0  0.4648500396     35.7646498874
13712600000 -10.3894937703   -78.9132889721   -200 0 -200 0  0.460698170804   35.7839222869
13812400000 -10.3899326799   -78.816218097    -200 0 -200 0  0.463153110007   35.7638071168
13912200000 -10.3844369588   -78.9149348646   -200 0 -200 0  0.464230789402   35.7840454561
14012000000 -10.4029815209   -78.8550738886   -200 0 -200 0  0.461855726657   35.7660656159
14111800000 -10.3847778741   -79.0271895862   -200 0 -200 0  0.464191685313   35.7729045768
14211600000 -10.3948163424   -78.7991480507   -200 0 -200 0  0.459780884178   35.78299487
14311400000 -10.3940043147   -79.0194432642   -200 0 -200 0  0.463544207521   35.7651083741
14411200000 -10.3842139036   -78.9300419777   -200 0 -200 0  0.46392282658    35.7823700852
14511000000 -10.3941351837   -79.0224684227   -200 0 -200 0  0.462381447796   35.7564260637
14610800000 -10.388951902    -78.9599033662   -200 0 -200 0  0.464299684796   35.7702136538
14710600000 -10.3800827397   -79.0106733298   -200 0 -200 0  0.467312092      35.7972102188
14810400000 -10.3905334779   -78.9644668223   -200 0 -200 0  0.463529595886   35.7636610789
14910200000 -10.3878080415   -78.9220577928   -200 0 -200 0  0.46417108073    35.772796804
15010000000 -10.3870179154   -78.9453248549   -200 0 -200 0  0.459220499894   35.7449838078
15109800000 -10.3912552623   -78.9305147888   -200 0 -200 0  0.463666583834   35.7680292435
15209600000 -10.3512555006   -78.9783129655   -200 0 -200 0  0.464978808995   35.7835553872
15309400000 -10.384876315    -78.8623210926   -200 0 -200 0  0.462779000974   35.7635430579
15409200000 -10.3973278333   -78.8850927337   -200 0 -200 0  0.464428526846   35.7701982646
15509000000 -10.3861794206   -79.0162273499   -200 0 -200 0  0.465800196927   35.8133928023
15608800000 -10.3926261532   -78.7820393994   -200 0 -200 0  0.46314229148    35.7636211693
15708600000 -10.3974151377   -79.0436581188   -200 0 -200 0  0.463867523046   35.7775880484
15808400000 -10.386029259    -78.9583917491   -200 0 -200 0  0.461131905918   35.7679551432
15908200000 -10.3973740495   -79.0650469162   -200 0 -200 0  0.463796103425   35.7725166584
16008000000 -10.3913914574   -78.9630704098   -200 0 -200 0  0.46245736976    35.7855979006
16107800000 -10.3710834465   -79.0152524018   -200 0 -200 0  0.463749719288   35.7679321015
16207600000 -10.390815304    -78.9696010101   -200 0 -200 0  0.463722687208   35.7773930396
16307400000 -10.3903552023   -78.907505835    -200 0 -200 0  0.464550974699   35.7517464506
16407200000 -10.3860197217   -78.9640351304   -200 0 -200 0  0.463891910375   35.7733117206
16507000000 -10.3915909438   -78.9169534136   -200 0 -200 0  0.464439670065   35.7805991266
16606800000 -10.392620528    -78.7649220001   -200 0 -200 0  0.46408477191    35.7687053187
16706600000 -10.3871667883   -78.9011492344   -200 0 -200 0  0.464088690583   35.7740776219
16806400000 -10.4029357827   -78.8732857281   -200 0 -200 0  0.466099906138   35.7730632914
16906200000 -10.3891107145   -79.1469240817   -200 0 -200 0  0.464055878177   35.7689126274
17006000000 -10.3984403888   -78.8031664889   -200 0 -200 0  0.464401831429   35.7770641846
17105800000 -10.400025373    -79.0188589432   -200 0 -200 0  0.464067729911   35.7447515274
17205600000 -10.385173701    -78.9955128776   -200 0 -200 0  0.464153447485   35.7733437263
17305400000 -10.4015956566   -79.0496231448   -200 0 -200 0  0.463394759094   35.7923861072
17405200000 -10.3916319783   -78.9777015331   -200 0 -200 0  0.46517246496    35.766428747
17505000000 -10.3689279      -79.0008069016   -200 0 -200 0  0.463640748686   35.7794843389
17604800000 -10.3913872367   -78.9763028403   -200 0 -200 0  0.465503630537   35.8081028743
17704600000 -10.3895023024   -78.9258891315   -200 0 -200 0  0.464131807947   35.7770813294
17804400000 -10.3865873118   -78.9846958679   -200 0 -200 0  0.463232786121   35.7825564423
17904200000 -10.391519365    -78.9255666779   -200 0 -200 0  0.464439444567   35.7814182863
18004000000 -10.3869018138   -78.8373961134   -200 0 -200 0  0.463720578952   35.7789567362
18103800000 -10.388088126    -78.9052624373   -200 0 -200 0  0.463556504245   35.7834739536
18203600000 -10.3995434944   -78.8584096104   -200 0 -200 0  0.464496102635   35.7792842644
18303400000 -10.1800526455   -77.1024750632   -200 0 -200 0  0.46382635362    35.7774617735
18403200000 -10.3768881241   -78.7419971926   -200 0 -200 0  0.463862601654   35.7929149712
18503000000 -10.4096870481   -79.0291621292   -200 0 -200 0  0.464098231481   35.7745856982
18602800000 -10.3864200356   -79.0197850011   -200 0 -200 0  0.46308650832    35.7811775853
18702600000 -10.4094121839   -79.148928781    -200 0 -200 0  0.465790920856   35.755349335
18802400000 -10.3923593364   -78.9910299195   -200 0 -200 0  0.463595307245   35.7784734574
18902200000 -10.3844643206   -78.9157424219   -200 0 -200 0  0.461439886367   35.7802694213
19002000000 -10.3911271994   -78.9921049352   -200 0 -200 0  0.464219544933   35.7749620987
19101800000 -10.3914297754   -78.9319895024   -200 0 -200 0  0.462710553509   35.7810092852
19201600000 -10.3672250864   -79.0050257443   -200 0 -200 0  0.455221870882   35.7586556393
19301400000 -10.3921362517   -78.9325204847   -200 0 -200 0  0.463285751556   35.7794119745
19401200000 -10.4019012712   -78.8601296601   -200 0 -200 0  0.461879299687   35.7814954753
19501000000 -10.3893150547   -78.9106601808   -200 0 -200 0  0.464026587535   35.7826431045
19600800000 -10.400819878    -78.9012507911   -200 0 -200 0  0.462939906142   35.7801946133
19700600000 -10.4357758367   -78.7110778554   -200 0 -200 0  0.462188063889   35.7916843754
19800400000 -10.4046574133   -78.8621508351   -200 0 -200 0  0.463437515904   35.7808711679
19900200000 -10.4163730455   -78.9995001808   -200 0 -200 0  0.462763393887   35.7813212412
20000000000 -10.3908836343   -79.0534115888   -200 0 -200 0  0.464022500244   35.7919592961
