! Micran, Research & Production Company
! Date: 2025-04-17 14:09:14
! Frequency	S11	S21	S12	S22
# Hz S dB R 50
4000000000  -29.635228369     30.1609752904   -27.2949449325   -6.99492152756   -28.9586690199   -110.555956256   -28.4530583373    39.9595734624
4011795544  -29.6568116823    29.8978588592   -24.7521319356   -33.0431639655   -41.4082841888   -67.2825487712   -29.9930848286    32.3228967219
4023591088  -29.6997037451    29.8032824298   -19.3910525254   -63.6158652891   -48.0635253879   -68.3495884742   -29.8337322273    30.5292473373
4035386632  -29.3681120324    32.0979736858   -5.70396774857   -165.021962569   -47.7114987586   -80.8559779384   -29.7148576546    29.773473243
4047182176  -29.4758359092    28.6396145829   -18.8848658175    92.8544572628   -48.5125487973   -102.997610235   -29.5847876148    29.2713183036
4058977720  -29.5156392023    28.6495615568   -23.6744200625    63.8278897248   -51.7446031174   -126.200223148   -29.4363817316    28.3246629097
4070773264  -29.5294155097    28.5577131925   -25.6631267454    37.6642800804   -50.745895738    -161.655385354   -29.3003860708    27.1107629153
4082568808  -29.5365734325    28.3299680455   -26.0118512013    12.4385954923   -49.1177285561   -174.892155572   -29.1979863624    25.240130844
4094364352  -29.5375669755    27.9222533287   -25.0110205549   -12.130435346    -45.2028303886    103.458286537   -29.4883775116    21.7632785067
4106159896  -29.5276424643    27.3213821666   -22.1493579291   -38.2532843152   -42.1857194643    5.28138350569   -29.9228084029    27.5781613653
4117955440  -29.494657616     25.9338620897   -16.0921572149   -69.8261735088   -48.3109289914   -49.7447933255   -29.3119534616    27.8419944898
4129750984  -30.4112321476    28.5121613208   -5.87693386424    155.291072065   -49.7910391951   -98.0902500048   -29.1010864283    26.8532368523
4141546528  -29.5429203834    28.0814958298   -18.110866876     86.5188145961   -51.9803458804   -118.944739949   -29.2687652865    25.4368418729
4153342072  -29.4621795665    27.2741166626   -22.6184965255    57.6638726111   -51.5088777562   -134.413158468   -29.4437168711    22.6948238189
4165137616  -29.4420469266    26.7337986843   -24.3815417627    32.0781300684   -46.3641237011   -153.016569505   -29.1973351084    19.6254896257
4176933160  -29.4359746653    26.2672797315   -24.6395161973    5.6873799917    -38.3385989247   -157.900922246   -27.6796371209    19.65641691
4188728704  -29.4484740612    25.8371781389   -23.4634144634   -19.7635546362   -38.1540823554   -69.6135033873   -30.3489278419    40.1302043097
4200524248  -29.4640288582    25.3170246553   -20.595069904    -47.3884835493   -46.2291382074   -68.4987001701   -30.5661214824    25.8676606762
4212319792  -29.5190153978    24.6202990865   -14.1730268526   -81.882170228    -48.6025581359   -74.5082628421   -30.0955376957    23.7101681782
4224115336  -29.5936172771    26.4978136074   -7.14790114331    140.566013169   -49.9522562047   -89.5481085207   -29.8255648359    24.633546692
4235910880  -29.455941416     25.2442789836   -17.674371013     82.0345752155   -51.0978375721   -117.581466155   -29.6839640997    26.1702707676
4247706424  -29.4622376029    24.8846607137   -21.4871393772    53.3666506929   -50.4321698912   -137.704258901   -29.5552089537    26.753730069
4259501968  -29.4751520872    24.6213286282   -23.17407724      27.5151961028   -47.7669220916   -179.938230298   -29.4010693863    27.5846900187
4271297512  -29.4919861112    24.3765874376   -23.2310991208    1.48158639844   -38.5931745451    115.618036394   -28.7122348624    28.4167738711
4283093056  -29.5183224179    24.3214581631   -21.9817892383   -24.4639914127   -42.9313277615   -11.9533478071   -29.192300386     21.7328938758
4294888600  -29.5314910189    24.3887512642   -18.9330088689   -52.2242883234   -48.3995993764   -53.8697027028   -29.3851227809    23.0890511201
4306684144  -29.4944951743    25.2464191465   -11.8483445144   -90.7775419873   -50.9489300541   -95.0488539119   -29.4073146725    23.2262895388
4318479688  -29.1801450628    21.718306019    -8.79058527556    127.924658183   -53.8969726783   -97.7317480376   -29.4345792216    22.8907712691
4330275232  -29.4474579432    22.2163926668   -17.9432993736    78.8039311367   -51.3881944242   -122.334704712   -29.485704624     22.5816593381
4342070776  -29.4679534326    22.3734801236   -21.7825057568    51.0767695057   -52.0090244203   -145.395455116   -29.6140757197    22.6023028422
4353866320  -29.4735524348    22.3214113099   -23.2562006281    25.8120721988   -47.0368286516   -143.98283044    -29.8331567827    22.7137490763
4365661864  -29.4721242743    22.1972576158   -23.2806316948    1.4617300455    -40.4763382221   -162.21079395    -30.452251476     22.115396976
4377457408  -29.47511396      22.1138620312   -21.747995942    -22.8209307112   -37.781388476    -82.0466986551   -29.384213069     11.6789120611
4389252952  -29.4666853723    22.0207345493   -18.1642016427   -49.9020076938   -43.6541478961   -76.1183807539   -29.2945496292    18.5801180575
4401048496  -29.3832232507    22.2175764003   -9.7333404069    -91.7719694555   -47.4898101446   -92.5072679942   -29.4765761831    19.7311430223
4412844040  -29.4428508159    20.2684230452   -10.3225980672    124.56164145    -50.9849552846   -116.170510741   -29.6300154462    20.1855880783
4424639584  -29.487582859     20.5596282938   -17.900780245     83.6644176149   -51.3192164534   -142.773120661   -29.7062029536    20.6528792533
4436435128  -29.4804217483    20.4894695525   -21.0442049276    56.5221785785   -49.1213872156   -172.773697415   -29.7764350685    21.5068068744
4448230672  -29.4666167436    20.3609824038   -22.3411136949    31.9310807347   -43.0080912919    172.296873724   -30.0389712326    23.8461422153
4460026216  -29.434125648     20.5275837      -21.8974008762    7.71995643739   -22.3915233063   -121.98055897    -31.3653779865   -65.1668973741
4471821760  -29.4347572629    20.1109170771   -19.9713840374   -17.1174139299   -43.7502372254   -71.5771158251   -29.0201923243    14.7201040895
4483617304  -29.3881926614    19.9644863474   -15.923529376    -46.5190491949   -48.5121878215   -101.750317304   -29.2514853853    16.968118767
4495412848  -29.2357819648    19.278713455    -7.08643343747   -101.708654632   -52.7655249822   -107.2533687     -29.3583894423    17.6327935467
4507208392  -29.5054209726    18.5297700512   -10.3748759978    133.905934308   -54.0072113009   -138.473860128   -29.4690976696    17.9420232458
4519003936  -29.4761616247    18.8764707136   -16.4542534533    95.5642774114   -54.0777496363   -144.042683177   -29.5854641585    18.0106006242
4530799480  -29.4599788871    18.7500779199   -18.9136542742    69.151154763    -53.2941942605   -178.949809418   -29.7383828859    17.7946517181
4542595024  -29.4518352722    18.5428834841   -19.536534125     44.1817703853   -46.7155279631    153.761926089   -30.0176990314    16.9523475653
4554390568  -29.4454230812    18.2458571267   -18.7053993695    18.664957294    -38.309450164     114.212440192   -31.2673133651    14.9245856006
4566186112  -29.4571967238    18.1727580214   -16.4049086775   -8.62350864965   -37.1914065467   -59.446190867    -28.3921462791    27.3943231535
4577981656  -29.4284736389    17.8257819398   -11.9162717696   -40.6642909587   -46.0791665635   -108.451911934   -29.065062922     20.0297804944
4589777200  -29.3938312853    16.9140430715   -3.01532512127   -109.636347381   -50.6014102682   -134.289014016   -29.2620854102    17.8735160019
4601572744  -29.5412307722    16.9922620492   -8.04202288431    137.818968234   -49.8604151294   -164.784784967   -29.3688366358    16.4418553616
4613368288  -29.5222697975    16.9215152353   -13.108015719     98.4280758647   -49.6745646245    171.001658792   -29.4889398927    14.9132926382
4625163832  -29.5057567968    16.6957944251   -15.1853360239    68.3294611015   -49.29415515      135.804417343   -29.7296783946    12.8929772316
4636959376  -29.491832946     16.4210929012   -15.5811373042    40.7928047582   -44.5807290079    90.6191398765   -29.9079719242    8.82656405041
4648754920  -29.4993820619    16.1684832647   -14.5700826301    13.3149217962   -38.1619852162    13.8581729007   -31.3496553774    2.57995951596
4660550464  -29.4550658506    16.0479125775   -12.0412775713   -15.7596624528   -44.1842136413   -89.1748519975   -31.3107865915    14.58127071
4672346008  -29.4021610582    15.5395671099   -7.05008644966   -51.8359872316   -48.9005253472   -137.774171505   -30.5256677875    14.4030878663
4684141552  -29.4854660971    13.9036744932    0.969184219692  -136.453353227   -50.3118316655   -169.716141332   -30.0792119089    14.2011121455
4695937096  -29.5855495283    15.129929952    -5.38685415176    128.150271399   -51.2759434495    172.136835392   -29.6399496885    15.5576767002
4707732640  -29.5219969673    15.027362208    -9.83206873875    90.3526747168   -49.0945439663    116.023493768   -29.1947789519    17.4241133583
4719528184  -29.5051229871    14.6491695999   -11.7376849287    60.0194609234   -45.6047464923    75.1883960855   -28.709811594     18.3115882876
4731323728  -29.5097384586    14.3153821813   -12.0652494683    31.1451767283   -42.0461150831    40.7880339842   -28.0658320985    18.8866392074
4743119272  -29.5121544621    14.3158495866   -11.1004113684    1.53571614126   -38.6682985661   -56.1339638129   -27.811109304     13.287829327
4754914816  -29.4570230913    13.9591017921   -8.59107995276   -30.1653473456   -42.6263966138   -137.801026678   -28.6323704765    13.0434971804
4766710360  -29.4241375181    13.5227933746   -3.84186569397   -70.642312597    -48.2910211177   -172.111077501   -29.0102337395    14.3409361417
4778505904  -29.4482267215    12.2869111437    2.26941872314   -157.798000179   -47.2316057098    142.810454004   -29.3300371446    14.7345698679
4790301448  -29.5690542765    12.4733271736   -3.30131421718    116.08459114    -47.4519804462    114.143096359   -29.5028027416    13.9639515767
4802096992  -29.5762815148    12.4276917565   -7.36267735194    75.3226135331   -46.5698037532    81.0180416245   -29.6986034108    12.6019702599
4813892536  -29.5907607997    12.3180562446   -9.02815162047    43.4649452327   -45.5549653059    29.652841372    -29.8537425682    13.0765350882
4825688080  -29.6012965011    12.3059368857   -9.1991435171     13.5151621447   -43.0404229922   -14.9876770459   -29.8962666051    14.4718836954
4837483624  -29.5650185366    12.3521339165   -8.08163511842   -16.8932489039   -41.3505873293   -88.1598117146   -29.607295316     15.2963269966
4849279168  -29.5213655232    12.0157378238   -5.43006477792   -49.9504245741   -41.7856148854   -134.056179929   -29.4081776746    13.3125908546
4861074712  -29.5319975145    11.5697623399   -0.370104324848  -94.7751939225   -44.4117999507    163.445343549   -29.5438942754    11.6040708942
4872870256  -29.5063319364    11.1446769915    3.72272580602    169.340041683   -46.7328078204    114.583343867   -29.6703512064    11.6705192054
4884665800  -29.5664918579    10.7537500656   -2.13765549197    97.36330852     -46.4673200417    90.5484112927   -29.7403627214    11.2716668268
4896461344  -29.6106262122    10.5714489371   -5.78572393023    59.1585801669   -47.9094606203    32.9876394244   -29.8514523914    11.7438022002
4908256888  -29.6383386097    10.4215575236   -7.5105282769     26.6292790606   -41.798548968     0.48624511017   -29.9922734347    13.0476978857
4920052432  -29.6261437683    10.472509284    -7.7968833351    -4.52432026719   -40.7226107122   -48.1665992118   -29.9463672104    14.9022240809
4931847976  -29.5639086032    10.2289558659   -6.81733076743   -36.1223262287   -39.7319602719   -105.360816034   -29.6278592902    15.65702911
4943643520  -29.543333888     9.42856370175   -4.2826317404    -71.4393969687   -38.7273784591   -165.746828855   -29.3766977211    13.6145209144
4955439064  -29.6302506905    9.11784394092    0.227633250954  -119.825879252   -40.3436873771    129.774904493   -29.512711123     11.7303448372
4967234608  -29.6046900576    9.06102269263    2.89291513458    151.919068675   -41.0191300715    93.0743522843   -29.5042550515    11.0554251564
4979030152  -29.6548110853    8.53535275714   -1.67500796538    83.9254284251   -42.6490055305    54.7500094038   -29.6338159383    9.3454924569
4990825696  -29.6971328281    8.54109800825   -4.86261109858    43.6740753503   -44.1081539747    8.49171106869   -29.7644329554    8.75412246573
5002621240  -29.6907985265    8.53053775469   -6.25728949586    11.6266309835   -43.0075887447   -42.5523607025   -29.7978822369    8.67707643096
5014416784  -29.6430226203    8.36305093983   -6.32181952658   -19.0958813567   -42.235193612    -95.1023298395   -29.777743627     8.60162115922
5026212328  -29.6098848323    7.87276863132   -5.12833277225   -50.561081231    -42.0530777324   -141.517603783   -29.7541774663    8.26120456405
5038007872  -29.6341681451    7.35794789367   -2.39468909913   -85.6370326333   -42.5853221445    169.970803797   -29.7764660868    7.95102486117
5049803416  -29.6903113941    7.34939137928    2.4232745888    -136.395168199   -41.005644867     126.045601959   -29.8347664328    8.22531650956
5061598960  -29.5697208463    6.60385002249    4.14113552662    130.460538843   -41.9366924212    66.9561160406   -29.6021190589    7.9499757326
5073394504  -29.7336147752    6.19359280842   -0.98714309464    67.6746778641   -41.9541962798    22.6050202387   -29.7091380791    6.91302740503
5085190048  -29.781312335     6.52499631422   -4.28462679245    28.8150069215   -42.1085509392   -15.283250799    -29.7829016436    6.87388061949
5096985592  -29.7393401705    6.47774946173   -5.81564172682   -49.7380579896   -44.0245687464   -60.268154941    -29.7519650003    6.77054597633
5108781136  -29.7335920597    5.82508215351   -5.92916922177   -127.053689261   -43.7898743766   -104.434756089   -29.7692741873    6.30988263081
5120576680  -29.7909187815    5.5346716357    -4.74551877135    154.840305138   -42.5506349221   -141.540052617   -29.8371379244    6.46350627498
5132372224  -29.7430321897    5.45696256233   -2.12752807822    71.68172412     -42.3331018646    170.6388872     -29.7533140563    6.96052175204
5144167768  -29.8230059189    4.09602627218    1.85190552847   -28.286696562    -40.886722248     118.160790853   -29.7030226708    6.00131402206
5155963312  -29.8637618776    5.88030585454    2.28751824877   -154.954857179   -39.684967623     67.7692229111   -29.6331502401    6.68410310416
5167758856  -29.7728786631    4.53742078207   -1.51711470489    102.150687782   -40.5409108841    4.31628489268   -29.6549505901    4.59911984772
5179554400  -29.7943235928    4.71563474121   -4.06354750135    18.5951492931   -43.6838747719   -45.6906883536   -29.8073841115    4.70598280897
5191349944  -29.7760387819    4.48742087459   -5.37743363037   -15.230911081    -43.3089797563   -85.8693616104   -29.7153026367    4.77652988336
5203145488  -29.7691613346    3.9762569935    -5.42106587328   -46.241279038    -41.6082167748   -131.55352483    -29.638782426     4.79826629546
5214941032  -29.8300594444    3.32211559638   -4.30143756747   -78.5944619342   -40.1498123134   -179.890171666   -29.6301507321    4.98338106891
5226736576  -29.9772043027    3.25964715887   -1.68655989825   -115.755620367   -38.3354048421    128.789676883   -29.6415095327    5.87095702761
5238532120  -29.9641632952    4.48952756251    2.46354957182   -169.898998794   -37.8749852144    76.5404884632   -29.4235822699    6.69508659235
5250327664  -29.839566359     3.14536726897    3.09899011604    105.040026867   -38.510907309     5.60254274804   -29.4473939401    3.86281768822
5262123208  -29.8900094395    3.23925999876   -1.07526526113    45.3730913336   -42.1652484776   -28.4097655792   -29.7265361811    3.73628063887
5273918752  -29.875394747     3.01779931799   -3.94338906924    6.06403975616   -43.2407508503   -55.0447865632   -29.8995344374    3.06587316351
5285714296  -29.8636618474    2.69667040478   -5.03425382215   -28.1912508328   -44.2139591685   -91.9659562104   -30.0538135789    1.68461190389
5297509840  -29.8864843927    2.27707486504   -4.92130508842   -60.9613746457   -45.3086292755   -135.967321681   -30.121876053     0.321745991404
5309305384  -29.9438302502    1.99500057024   -3.5497858818    -95.2524518448   -44.7030504599   -171.786952742   -30.1632362376   -0.739992577176
5321100928  -30.0227555416    2.16431080188   -0.845427753826  -135.502501446   -43.2000334324    146.385457254   -30.2208288882   -1.23249217316
5332896472  -29.9174551279    3.06829012875    2.70455383598    165.793835937   -39.8945832171    98.3303243225   -30.2045220558   -0.490095686716
5344692016  -29.8527832006    0.746837125415   2.14114315905    87.9603069846   -39.1680445644    25.2598404619   -30.1582394828   -1.05415947478
5356487560  -30.0390032337    0.942962819255  -1.46507919695    34.4152979784   -42.1022819837   -27.3899402333   -30.1583831486    0.344006023364
5368283104  -30.0502236414    1.00435761012   -3.97827040152   -3.32615272554   -45.042873672    -74.7785276977   -30.0475907192    1.07516417985
5380078648  -30.0221316638    0.930562932593  -5.07531483283   -36.337158307    -45.1477230468   -118.104720674   -30.0039003381    0.790752694472
5391874192  -30.0072717436    0.845803388958  -5.07086140153   -68.7524591566   -43.653250977    -140.251203313   -29.9810407604    0.277967247353
5403669736  -30.0088086362    0.787618561247  -3.91904798875   -102.875024939   -43.6251729567   -169.433406042   -29.9808626546   -0.322188987621
5415465280  -30.0255883063    0.812446685989  -1.47833966997   -143.016813658   -38.5443427436    157.97714579    -30.0283221482   -1.08869770459
5427260824  -29.774890355     1.08250217971    1.7117213698     160.05916916    -35.2307365339    83.3901696184   -30.0066065449   -1.54708396603
5439056368  -30.0490458968   -2.17904923392    1.58759033387    84.66442468     -37.1555457225    0.724545048313  -30.3744421181   -2.16582404268
5450851912  -30.2696916078   -0.6109497955    -1.71125696329    28.3903188614   -40.852165785    -44.4150443821   -30.3061906856   -0.381092864734
5462647456  -30.2446461384   -0.144576534673  -4.10559606405   -12.0925659778   -46.428582795    -90.6068226324   -30.1574064514   -0.445588470994
5474443000  -30.1745196611   -0.437927155189  -5.0374391109    -46.1025573898   -46.5795805052   -121.11283988    -30.148519299    -1.31147813892
5486238544  -30.1330084294   -0.867237242691  -4.75863321577   -78.8815727017   -45.6581788777   -170.76512221    -30.1696350984   -2.32420863565
5498034088  -30.1286735543   -1.03898084454   -3.3076545469    -113.269448527   -44.7346775388    142.06623817    -30.1905647968   -3.07614181646
5509829632  -30.0857007128   -1.00420358844   -0.469334972807  -154.752587378   -44.2891962435    103.253578077   -30.1678830682   -3.62120730772
5521625176  -29.9398729477   -2.06155531104    2.73829675545    142.813610041   -40.7808136715    41.1277644181   -30.084247598    -4.58845454831
5533420720  -30.2441500898   -2.9261119412     1.32852706468    68.0524017519   -43.1040546705   -25.7942301622   -30.3145848588   -4.84973708865
5545216264  -30.2918986719   -2.28613526702   -2.14968985424    17.9575994041   -43.9889234794   -76.0927936088   -30.3229287056   -3.6062838921
5557011808  -30.3041016549   -2.52428035746   -4.30313546603   -19.0192849189   -46.3583545308   -94.4406438776   -30.3483478065   -2.695521293
5568807352  -30.3253631521   -2.89681492648   -5.34869729012   -53.3482497167   -46.2274270226   -131.023105721   -30.3441403459   -1.91959303281
5580602896  -30.3659245519   -3.2221302345    -5.28771341614   -87.3579906751   -44.6030660269   -159.91310911    -30.296866778    -1.1744987724
5592398440  -30.4171242131   -3.36409865197   -4.075743174     -123.913595885   -44.7645993795   -177.260249993   -30.1892171815   -0.0879288773524
