! Micran, Research & Production Company
! Date: 2025-04-17 14:09:16
! Frequency	S11	S21	S12	S22
# Hz S dB R 50
4000000000  -29.6338366992    30.1789610471   -27.2609739788   -6.62270164728   -27.2788955081   -110.313375069   -28.4140156103    40.356906234
4011795544  -29.6576557849    29.8972393804   -24.8163567776   -33.3962984841   -42.1516541721   -52.4179465232   -29.9937493657    32.2886795088
4023591088  -29.6992274064    29.8040091468   -19.4465544266   -63.4070317157   -48.4319293664   -71.0917301925   -29.8332960631    30.5243776679
4035386632  -29.3791946128    32.0421597809   -5.98311164597   -164.830824008   -50.028008472    -96.1255434073   -29.719803384     29.7972498327
4047182176  -29.4752814285    28.6412340526   -18.8392049303    92.4465944133   -50.994446928    -98.0888722867   -29.5838441556    29.2657564062
4058977720  -29.5156107996    28.6510941372   -23.7522108514    64.0628561928   -52.0582224788   -128.779472387   -29.4363339687    28.3219570439
4070773264  -29.5295746636    28.5581231204   -25.6258309382    37.2032034536   -51.2247472346   -158.979772601   -29.3009098759    27.1087494692
4082568808  -29.5363970098    28.3280163415   -25.9399014422    12.2206014038   -47.9900311428    170.625018528   -29.1973338722    25.2404362579
4094364352  -29.5377593831    27.9157334012   -24.8903951501   -12.3590205019   -42.3657978973    101.849890349   -29.4872242708    21.7782580573
4106159896  -29.5275802714    27.3208790658   -22.188951806    -38.6616741756   -42.9275923863    4.88653628651   -29.9211953225    27.5868325432
4117955440  -29.4958308656    25.9378380481   -16.1206075579   -70.0716284512   -47.7613509095   -45.8277428956   -29.3146334136    27.8443721989
4129750984  -30.4008480264    28.4577616809   -5.97812718452    155.833283027   -51.1067218771   -98.307250132    -29.100089591     26.8650195705
4141546528  -29.5438793015    28.0757227031   -18.2128302768    86.845812381    -49.8679032868   -120.760136043   -29.2703396295    25.4382269074
4153342072  -29.4624717626    27.2746585444   -22.6316958216    58.1075020115   -50.2163905175   -137.151307609   -29.4446530946    22.7002142227
4165137616  -29.4418699117    26.7365308993   -24.4796283901    31.7585521042   -44.5705454224   -153.796160809   -29.2012354582    19.600083756
4176933160  -29.4362998323    26.2668760379   -24.652431987     5.86470875254   -38.6202709036   -157.807482675   -27.6619235686    19.4549363676
4188728704  -29.4491499129    25.8373045069   -23.5404992604   -19.7140110439   -38.040600086    -65.4223410581   -30.3811814254    40.1141207235
4200524248  -29.4640216875    25.3169192981   -20.6210719966   -47.8361865772   -45.9387747822   -71.0969299817   -30.5644444086    25.8256810123
4212319792  -29.5213950804    24.6187961284   -14.2532521397   -82.1972461406   -51.1386238684   -77.6158932895   -30.0965898334    23.7118274782
4224115336  -29.5945245917    26.4850588029   -7.1806308654     140.760059132   -50.1199475708   -98.2300099788   -29.8259442067    24.6480457601
4235910880  -29.4561855365    25.2419644106   -17.7594262888    82.207713049    -51.6714664608   -112.999028802   -29.683820315     26.1657747618
4247706424  -29.462000758     24.8850488648   -21.5872278871    53.4692812102   -50.4112736508   -146.841394701   -29.5558988774    26.7637813871
4259501968  -29.4748678854    24.6208924881   -23.1459173213    27.2635425812   -46.9735150089    175.014450815   -29.3999599865    27.5776056701
4271297512  -29.4915823493    24.381774621    -23.2548040863    1.54868172145   -39.10430262      121.410333985   -28.7129973113    28.4644087313
4283093056  -29.5188879764    24.3167975998   -22.0792453078   -24.2229192356   -42.6990642739   -0.627921440468  -29.1932742436    21.7417708236
4294888600  -29.5311845774    24.3919383739   -19.0373138383   -52.4414579326   -47.5024141493   -53.9277569726   -29.385690329     23.0918109135
4306684144  -29.4941029696    25.2526200975   -11.9425939256   -91.1659681302   -52.5292676378   -83.0394618589   -29.4082608136    23.236679103
4318479688  -29.1823987813    21.7478017083   -8.90546189272    128.338434552   -52.424273727    -103.091974153   -29.4354743553    22.8917221973
4330275232  -29.4468152971    22.2184475246   -18.0203031911    78.9626074034   -51.5429148163   -127.391572213   -29.4853615322    22.5826957708
4342070776  -29.4681580774    22.3775623017   -21.7811159652    50.7534697887   -49.4864973516   -134.649430405   -29.6145458688    22.6090508737
4353866320  -29.4730462077    22.3177939082   -23.2855347156    25.8922941353   -47.7886775734   -157.3779664     -29.8316154576    22.7100359406
4365661864  -29.4712897048    22.1987708511   -23.2846673025    1.81529904687   -39.3550583172   -162.503491525   -30.4580764414    22.1681355598
4377457408  -29.4731327484    22.124589602    -21.7348691234   -23.2033034474   -35.9639760761   -88.5887132808   -29.3737903428    11.7322142634
4389252952  -29.4673880624    22.0214280248   -18.2261876038   -49.9251472224   -43.9773240587   -68.9305857912   -29.2967590944    18.5866896694
4401048496  -29.3821737973    22.203211286    -9.85859362209   -92.8689236511   -47.1105808875   -95.0756320672   -29.4764537023    19.7285937511
4412844040  -29.4421011649    20.2741421552   -10.3824858772    124.688086956   -51.0044082123   -116.477350505   -29.6299126807    20.1838835858
4424639584  -29.4875053913    20.562314577    -17.9292398811    83.8693748002   -50.2488582634   -144.567520352   -29.7056919297    20.6572940762
4436435128  -29.4802738874    20.4914304195   -21.1583029812    56.462022101    -48.095268878    -170.953676881   -29.7736113311    21.5124238103
4448230672  -29.4669363857    20.3630640169   -22.3112901684    31.8174958047   -43.3960101768    178.255454466   -30.0376438183    23.8479116981
4460026216  -29.4314178609    20.5148708043   -21.9412950055    7.58241113125   -22.429778989    -125.316715411   -31.869318768    -72.6256047583
4471821760  -29.4358784473    20.1121679591   -20.0606178961   -17.641340785    -43.0322527148   -59.8469801135   -29.0210064348    14.7173846279
4483617304  -29.3884678201    19.9621503175   -15.9393129615   -46.6004121962   -49.1201863456   -101.369540631   -29.2525836442    16.9659820837
4495412848  -29.2386459639    19.2702456854   -7.18361387776   -102.167073584   -53.5049211767   -110.228923561   -29.3581806963    17.6444490966
4507208392  -29.5044360868    18.5242857931   -10.418710822     134.191936043   -54.0243136862   -129.206312757   -29.469303904     17.9370594927
4519003936  -29.4752545616    18.8797763911   -16.4532256631    95.4496937864   -53.7039695159   -165.136610263   -29.5852677496    18.0195175558
4530799480  -29.4599425972    18.7525375281   -18.9169193025    69.1524220806   -51.7342698848   -174.911505771   -29.7380326477    17.8018482198
4542595024  -29.45199525      18.5399093279   -19.5397840905    43.9681052368   -47.3500116216    149.490351386   -30.0197255749    16.9600249549
4554390568  -29.4465600206    18.2432005789   -18.6924276571    18.3614615472   -38.6841306254    109.107986654   -31.2709975403    14.9136554593
4566186112  -29.4559702441    18.1627539901   -16.4413015399   -8.58806280817   -38.0381595627   -61.5850958963   -28.391814444     27.4222366432
4577981656  -29.4287828928    17.8303653971   -11.9123382122   -40.7724391727   -45.8987491536   -103.551931085   -29.0654596971    20.0668197093
4589777200  -29.3936294271    16.9047411403   -3.16285065796   -109.764460951   -49.4379106111   -132.183275619   -29.2609234536    17.8666610448
4601572744  -29.5405881781    16.987769333    -8.0575643256     138.019914023   -50.3538980478   -162.914028527   -29.3677869351    16.4444019196
4613368288  -29.521923199     16.9191480661   -13.1155302036    98.3363212616   -50.1181468829    168.362188075   -29.4893186351    14.9041775787
4625163832  -29.5060746292    16.697620001    -15.1994189392    68.6554818685   -49.564536859     140.46117727    -29.7298535915    12.8847872882
4636959376  -29.4913794793    16.4231320674   -15.6033849117    40.9208557778   -44.5128035114    94.297150419    -29.9105682912    8.86289298377
4648754920  -29.495646132     16.1790151903   -14.597928584     13.2719650765   -40.1072337466    14.7759986323   -31.3613260588    2.63282724798
4660550464  -29.4568440279    16.0516197177   -12.0561283629   -15.9034335883   -43.9656624884   -81.2080597345   -31.3131940682    14.5735962832
4672346008  -29.4019421692    15.563547017    -7.0501657739    -52.4531772919   -48.7176522287   -120.956443629   -30.5226542387    14.4149778972
4684141552  -29.4828912251    13.875360722     0.876282017625  -136.541047569   -49.2060144379   -158.875267106   -30.0750512665    14.1472031893
4695937096  -29.5834076311    15.1406765724   -5.40121733245    128.40668044    -50.6854291907    161.125795672   -29.6341906783    15.5675804275
4707732640  -29.5217271894    15.034946631    -9.84060267933    90.4746033771   -48.364272146     121.593260164   -29.1951196518    17.4367353051
4719528184  -29.5030767723    14.6536297053   -11.7504169451    59.8952417736   -44.8766111934    84.1024185039   -28.7098581574    18.3166317879
4731323728  -29.5110644693    14.338280513    -12.0857933883    31.0560596281   -43.5668040504    31.3587139284   -28.0631266664    18.8882988499
4743119272  -29.5075979586    14.3344453991   -11.1104667101    1.41264920554   -38.5605831903   -66.8707772934   -27.7963355281    13.3588957605
4754914816  -29.4598288666    13.9725681505   -8.63070851601   -30.2894828213   -43.4057049224   -130.431144853   -28.6308877981    13.064071683
4766710360  -29.4284400553    13.4690359295   -3.83720953365   -70.906847327    -46.1799760617    172.407804708   -29.0151595974    14.2895563469
4778505904  -29.4460923689    12.1977699535    2.16190103648   -157.942788082   -48.0874186316    160.895937594   -29.3245676413    14.6454250023
4790301448  -29.5667384458    12.5179998308   -3.32353589405    116.230955502   -45.4698569018    118.907817802   -29.499991856     14.0047832362
4802096992  -29.5800720133    12.4285214486   -7.38220438843    75.3515648699   -48.5486063608    75.127331382    -29.7018748404    12.6189748391
4813892536  -29.5912552395    12.3153934646   -9.02010902347    43.4614203409   -45.2970629883    28.129113632    -29.8520187183    13.0643736855
4825688080  -29.6030316583    12.3118033077   -9.22013398732    13.4677089852   -42.2986218768   -17.082342242    -29.9032696654    14.4727161592
4837483624  -29.5696834659    12.3381774703   -8.11404382732   -16.9317634863   -42.2315083045   -79.4476297855   -29.6053665158    15.270080905
4849279168  -29.5267621973    11.9897585657   -5.46070682177   -49.9983754725   -42.9478128004   -141.399689337   -29.4089857512    13.3254526671
4861074712  -29.5270888388    11.5868757725   -0.382743722114  -94.885522834    -45.2066679313    168.086704707   -29.5405615454    11.6283952285
4872870256  -29.5285509363    11.2083943716    3.6508203223     169.430927081   -44.6296410235    128.775581703   -29.6954483581    11.7193893268
4884665800  -29.5623161353    10.7140033048   -2.16268417095    97.4531468213   -45.5146257192    79.643604121    -29.738465867     11.2138478846
4896461344  -29.6074222043    10.5448079664   -5.81625781525    59.3438156781   -45.9789390147    40.2944811191   -29.8470699782    11.7311729008
4908256888  -29.6327334227    10.4201648986   -7.53505977076    26.6076778023   -43.2550047823    6.69281913987   -29.9768699043    13.0421089331
4920052432  -29.6311379905    10.4655673323   -7.82805908022   -4.46856829186   -40.043187611    -40.679475871    -29.9650896844    14.8781667267
4931847976  -29.5530724028    10.2900679863   -6.83581575072   -36.2715840126   -37.0996703924   -104.550082854   -29.616290139     15.7514900932
4943643520  -29.5468527531    9.49657192088   -4.3131897423    -71.382006704    -40.3491147878   -162.684826414   -29.3965370863    13.7222497464
4955439064  -29.6125782042    8.95001789921    0.206831396001  -120.076261343   -41.1677126477    151.124581016   -29.4961484471    11.5923186188
4967234608  -29.6065701047    9.00738393447    2.84715008893    151.942547978   -41.7035749833    92.0943535399   -29.5113907351    11.0098267252
4979030152  -29.6566146027    8.52536950724   -1.70757638465    83.9758653954   -42.6954336433    52.0732307603   -29.6313044839    9.3064591588
4990825696  -29.6953848146    8.52243915817   -4.8769284301     43.8020348888   -43.7434826237    13.6887515068   -29.7650722022    8.72011896397
5002621240  -29.6904969623    8.51598545827   -6.27427072468    11.6161720519   -43.3686311307   -39.2312458485   -29.7984463808    8.65186522452
5014416784  -29.6473404852    8.33540850771   -6.34582914259   -19.1243963323   -43.8103728275   -90.330040408    -29.7788832911    8.55687749153
5026212328  -29.6122947718    7.89586930346   -5.14752895621   -50.6631221155   -42.7508906522   -136.433717772   -29.7597130478    8.28163013056
5038007872  -29.6267033016    7.33160755046   -2.42379986197   -85.7836913152   -41.9268613945    178.719807874   -29.7708333122    7.92910644749
5049803416  -29.6739038575    7.32210713881    2.39534489488   -136.440963395   -42.5859846773    126.629862891   -29.8186431774    8.19169652572
5061598960  -29.5722215117    6.62336639373    4.08073416101    130.547705949   -42.019212448     68.4702411032   -29.6017743191    7.97271165467
5073394504  -29.7294267041    6.24138677312   -1.01551294376    67.6598907688   -42.969385824     26.8996788716   -29.7044020283    6.95756708892
5085190048  -29.7773187615    6.53767607247   -4.31510723362    28.9238867906   -42.9977474442   -16.8188338906   -29.7758483733    6.89294508154
5096985592  -29.7385689453    6.50586769469   -5.82999542601   -49.7921005896   -42.7740480303   -58.8252215685   -29.7513017549    6.79782863012
5108781136  -29.7290794173    5.830625799     -5.9513733544    -127.047086681   -43.0688232382   -96.8200240435   -29.7647969139    6.31264735177
5120576680  -29.7890533709    5.56724373308   -4.76569393741    154.758402347   -43.1842449188   -148.702319008   -29.833587782     6.48507214226
5132372224  -29.7441957308    5.49588619871   -2.13766245043    71.5676835815   -41.5471925959    174.452471241   -29.7535803258    7.00551395756
5144167768  -29.816256771     4.04056182469    1.79749119923   -28.4219122742   -40.0645969428    121.838551556   -29.6964596978    5.93531330408
5155963312  -29.8593949196    5.88076623459    2.22934334604   -154.969176544   -39.6135199582    65.7972236645   -29.6289378533    6.68918276344
5167758856  -29.7710345898    4.5254526834    -1.53876494078    102.24443827    -40.2428500299    5.31702558315   -29.6542201846    4.58605350377
5179554400  -29.8006029903    4.73188594283   -4.10240839666    18.6780172891   -42.160402192    -44.9269573211   -29.813216148     4.73158566515
5191349944  -29.772293683     4.50928161091   -5.39384592559   -15.3388826257   -42.2427816794   -90.6860931476   -29.7116971512    4.80090153376
5203145488  -29.7666976721    3.95365448063   -5.45905091905   -46.3793840834   -41.0193649447   -136.45398701    -29.634924854     4.77327079077
5214941032  -29.8266936627    3.35563071838   -4.30702127915   -78.6410767149   -40.8305435104   -174.654852894   -29.6309431835    5.00914746527
5226736576  -29.9842842244    3.23375980406   -1.72131917377   -115.882317382   -37.5460503919    130.336809917   -29.6469775412    5.87922910182
5238532120  -29.942553826     4.60385218544    2.42509877088   -170.123839931   -36.7660971201    70.1001268705   -29.4027051922    6.80433503226
5250327664  -29.8370499226    3.35372114634    3.04270278278    105.036263502   -40.3093723119    12.2533609107   -29.4440012757    4.05530081723
5262123208  -29.8853064497    3.26006998562   -1.13668936929    45.4515859405   -42.9793372777   -30.1838059912   -29.7195861326    3.77921728418
5273918752  -29.8697599945    3.02976099329   -3.97882056347    5.98161461663   -43.6835337068   -63.8029100028   -29.8921049408    3.0808170628
5285714296  -29.8588766968    2.67857999619   -5.07181626174   -28.2473370562   -44.021041343    -102.642117353   -30.0486723714    1.66308458274
5297509840  -29.8847565601    2.30264325127   -4.90468812147   -61.0905503206   -45.0591672532   -127.254605777   -30.1207435687    0.34195549043
5309305384  -29.9369132996    1.99508404417   -3.59199085924   -95.3655767689   -44.3837113638   -160.389908656   -30.1561681926   -0.742329065383
5321100928  -30.032329278     2.10935658158   -0.864648816277  -135.476219503   -41.536043388     151.957882608   -30.2320723615   -1.29531285769
5332896472  -29.9164802338    3.13786823666    2.66042822246    165.644299285   -39.0846531848    98.6909192132   -30.2034033382   -0.408984756913
5344692016  -29.8586985342    0.798166298346   2.09413166861    88.0475351426   -39.8119979684    24.1119721092   -30.1640292077   -1.03045122138
5356487560  -30.0356416642    1.00251974393   -1.51074567071    34.4972259841   -42.6464806008   -36.3636053125   -30.1556145791    0.407561899062
5368283104  -30.0452425855    1.04703719377   -4.01168570329   -3.32244580574   -43.5128844346   -84.4240449998   -30.0432920492    1.11552342947
5380078648  -30.0251321856    0.952792146391  -5.09032948939   -36.3693403653   -45.4581119491   -108.422020998   -30.0067421061    0.812267932292
5391874192  -30.0105936852    0.889511243039  -5.08708101403   -68.7128512177   -45.4498856553   -131.111743553   -29.984420595     0.324654890368
5403669736  -30.0098995726    0.791408676655  -3.94349593155   -102.844218074   -43.7626655514   -171.482933707   -29.9818210704   -0.314335949632
5415465280  -30.0170516255    0.921850960593  -1.52345004997   -143.262529303   -39.6880107583    147.110335454   -30.0204120715   -0.968016903836
5427260824  -29.789731385     0.980871950716   1.66151685285    159.976491928   -36.2061826135    85.5025071552   -30.0246226512   -1.69072012237
5439056368  -30.0582193388   -2.14111549398    1.52626545674    84.8338510631   -37.3370844232   -3.24614778882   -30.3835837457   -2.13425050159
5450851912  -30.2566223171   -0.533437994078  -1.71345648129    28.5021537177   -41.8081216654   -59.3993004991   -30.2946095914   -0.294943729906
5462647456  -30.2452888999   -0.112162028988  -4.12483174162   -11.9462511007   -44.8988325377   -86.9569546757   -30.1586543568   -0.419359098242
5474443000  -30.176065243    -0.467487947724  -5.05610258305   -46.20602739     -47.4191838666   -131.808706287   -30.1499101023   -1.3345779132
5486238544  -30.1342208365   -0.863954785829  -4.78152548997   -78.9307044148   -45.9958435821   -172.794690204   -30.1717746775   -2.31590681341
5498034088  -30.128124341    -1.01245119929   -3.31832505957   -113.216204083   -45.338481593     135.684475308   -30.1926186492   -3.04470049533
5509829632  -30.0899119634   -0.983693083468  -0.518049518976  -154.867940733   -43.39196016      104.272157112   -30.1707128814   -3.60126966826
5521625176  -29.9581461947   -2.08566492171    2.68811677676    142.838245284   -42.3153601237    39.3193155803   -30.0986190482   -4.63865470363
5533420720  -30.2370350985   -2.8991456199     1.27929912935    68.0895646497   -44.0290057566   -23.7229438613   -30.3079118598   -4.82560694065
5545216264  -30.2955973498   -2.35025755497   -2.15799616282    18.0073774633   -45.1371339109   -63.1590424569   -30.3283201337   -3.65938628441
5557011808  -30.3018820322   -2.54873888041   -4.32591871935   -18.9102900374   -47.1640357821   -103.147835218   -30.34667838     -2.71575843226
5568807352  -30.3266059706   -2.88293326441   -5.38704125318   -53.3905396405   -46.7170238008   -125.663321731   -30.3460689207   -1.92088596353
5580602896  -30.3663034731   -3.18999830641   -5.30873288928   -87.4488930348   -46.1550111227   -156.054266524   -30.2958389706   -1.14237020346
5592398440  -30.4188636219   -3.3535027273    -4.11719631634   -123.925252906   -44.8285788771    178.267287782   -30.1892514536   -0.104891985217
