! Micran, Research & Production Company
! Date: 2025-04-17 14:09:10
! Frequency	S11	S21	S12	S22
# Hz S dB R 50
4000000000  -29.6359335741    30.1664071073   -27.1437999599   -6.46381851177   -28.5321224139   -108.03869285    -28.4907329948    39.7407199598
4011795544  -29.6582632492    29.888548484    -24.6232779864   -32.2294123777   -43.9897461528   -58.816494538    -29.9896397406    32.2683789725
4023591088  -29.7020884517    29.7886307198   -19.4361077575   -63.4064397328   -49.971698328    -73.3648546524   -29.8333048507    30.5284211162
4035386632  -29.3460237194    32.4040973048   -5.29983380739   -165.678983827   -47.8201820169   -67.0183694559   -29.7094579975    29.7908171726
4047182176  -29.4750803845    28.6224531824   -18.8482034795    92.7812819771   -48.8982657057   -94.9580084864   -29.5851326432    29.2718829913
4058977720  -29.5151682077    28.6454753911   -23.5702220127    62.9671014395   -51.7292147062   -127.213997032   -29.4368823357    28.3253408524
4070773264  -29.529481986     28.5548711703   -25.5725076771    37.9451328702   -51.764116355    -142.829462721   -29.3007335415    27.1133697117
4082568808  -29.5364879538    28.3251191133   -25.9824091482    13.152232839    -51.5068400377    169.241356904   -29.1971405145    25.2392688579
4094364352  -29.5366525955    27.9137266051   -24.8717393323   -12.1979823794   -42.6164227988    108.019859734   -29.4765780906    21.79935498
4106159896  -29.527253464     27.3178297927   -21.9345859343   -38.718319144    -41.5014509192    11.2878815955   -29.9307576486    27.6381468317
4117955440  -29.4882812654    25.9226615278   -15.8541569757   -69.222240493    -48.4313338756   -60.5888740862   -29.3092813665    27.8502909259
4129750984  -30.4677605746    28.8671382423   -5.22765326014    153.178767728   -49.9672962768   -99.4777428513   -29.1015757606    26.8463455432
4141546528  -29.5409046698    28.1050935548   -17.9509648044    86.1288090683   -50.3057661114   -133.804805001   -29.2664620123    25.4358333989
4153342072  -29.4610823795    27.2785522223   -22.4882203102    57.314137209    -51.4868266381   -140.709444701   -29.441867873     22.7009625629
4165137616  -29.4417149557    26.7353514183   -24.4774772143    31.3747614524   -46.8436813232   -145.505873898   -29.1967608165    19.6556534902
4176933160  -29.435860107     26.2704131075   -24.6360039498    6.3493678731    -38.5695440921   -153.802813706   -27.6568851337    19.7175937409
4188728704  -29.4487611516    25.8356231256   -23.4598821106   -19.2572114771   -38.4271515536   -63.2260967967   -30.3287239868    39.8024450594
4200524248  -29.463810086     25.3174911991   -20.5447695981   -47.2199272317   -46.2885468323   -58.937396479    -30.5594917416    25.8752799183
4212319792  -29.5171829274    24.6147598342   -14.0531453412   -80.7229581363   -48.6860424091   -64.0550291893   -30.0950271623    23.7403019238
4224115336  -29.5909377478    26.5814156577   -6.73976571124    138.728546136   -50.2244462908   -88.7247440202   -29.8267155872    24.6429440181
4235910880  -29.4547718108    25.243090904    -17.5722833922    80.747094062    -51.7463824281   -117.394507612   -29.6845292875    26.1658526311
4247706424  -29.4614821553    24.8799762534   -21.4410655461    53.0270031134   -52.5087677165   -149.177880521   -29.5572785443    26.7550180673
4259501968  -29.4745710614    24.6187435509   -23.0747272491    26.6973793441   -46.6713701976    176.02260273    -29.4048594461    27.5822154397
4271297512  -29.4923336207    24.3693508354   -23.2184573153    1.73306348699   -37.957461041     110.251220018   -28.7018909442    28.5081299946
4283093056  -29.519279536     24.3190993761   -21.8642532249   -24.3134740659   -41.9012155528   -9.08310777029   -29.1981060285    21.7381786652
4294888600  -29.5330358535    24.3860936041   -18.8204905275   -51.9393461041   -47.7257995909   -45.1333005634   -29.3868502976    23.0943317683
4306684144  -29.5031959088    25.2701774943   -11.6890237546   -89.8748866751   -53.9383586916   -72.4862725055   -29.4096676187    23.2392894202
4318479688  -29.1834323127    21.6379331192   -8.52097488129    126.32254135    -51.5599154807   -116.702225612   -29.4378715747    22.8976882341
4330275232  -29.4489902386    22.2064841951   -17.921072768     78.604297618    -52.2655006786   -108.617627096   -29.4860887832    22.5726695256
4342070776  -29.4681231861    22.3738421841   -21.7513464162    50.6625258708   -50.2542156944   -157.743524629   -29.6138632622    22.5969133726
4353866320  -29.473165493     22.3194409692   -23.2627838909    25.7806084947   -46.1244541229   -159.784044793   -29.8300596962    22.686406346
4365661864  -29.4738268731    22.1950875877   -23.2633656355    1.56737534642   -42.9207517382   -160.46132126    -30.4515934119    22.0896389279
4377457408  -29.4759144938    22.1292881328   -21.7165392242   -22.9647879394   -35.9998512705   -77.1679227253   -29.3915779753    11.8184740088
4389252952  -29.4670740811    22.0164694506   -18.0876029037   -49.6639538688   -44.3439444852   -83.7702872646   -29.2982845847    18.5483553329
4401048496  -29.3863522711    22.2325068295   -9.69842957005   -90.9289761763   -47.7758114884   -99.6751435252   -29.4769947412    19.715845928
4412844040  -29.4467701683    20.2383278424   -10.1269433987    123.568347168   -48.827678674    -109.184632327   -29.6315549195    20.1777030548
4424639584  -29.4881062339    20.5659251882   -17.8288425628    83.358673496    -48.9532711447   -151.140984828   -29.7066146227    20.6574518258
4436435128  -29.480464122     20.4889197307   -21.0090871572    55.9534651184   -49.0229174819   -176.722308551   -29.7767232471    21.5099816587
4448230672  -29.4674939893    20.3614389736   -22.2128183827    31.6667079693   -44.2873953792    176.519347583   -30.0441909675    23.8437178164
4460026216  -29.4346083383    20.502998141    -21.7698347411    7.86852220082   -23.1227438433   -123.703429445   -32.5834601239   -59.4480383761
4471821760  -29.4350141431    20.1086907514   -19.9918369694   -17.2262010052   -44.6537788688   -71.4919297692   -29.0277547258    14.66719371
4483617304  -29.3892819517    19.9687057977   -15.8277235322   -45.6399600555   -49.911717744    -98.803397303    -29.2539715412    16.9526132519
4495412848  -29.2275756255    19.2891214334   -6.8703256147    -99.8702425756   -48.9725688705   -114.89102679    -29.3543789972    17.6030924311
4507208392  -29.5084977866    18.5301932833   -10.2340861628    132.844046147   -53.7971114608   -137.641050537   -29.4711365051    17.9289212996
4519003936  -29.4771302118    18.8838518682   -16.3236903662    95.3414900208   -51.9314064612   -144.894865372   -29.5861874279    18.0078070778
4530799480  -29.459615509     18.7514302819   -18.8098784647    69.2322500637   -52.6332314962    167.877805004   -29.7369253547    17.7710489416
4542595024  -29.4522964165    18.5417492316   -19.4313834442    44.0065650121   -47.7940505898    150.546871472   -30.0125621324    16.9148606874
4554390568  -29.4467958635    18.2504449136   -18.6102514207    18.5756800658   -39.3426197205    111.174755285   -31.2242238906    14.6234224756
4566186112  -29.4542800367    18.1593441473   -16.4026399196   -8.18475336344   -38.8346358217   -67.4986984826   -28.3771142982    27.5200608113
4577981656  -29.4287972545    17.8563211843   -11.7552681555   -39.8618644347   -44.6742220545   -93.0967512929   -29.0651849908    20.0681155603
4589777200  -29.3915502936    16.9320938797   -2.6624373239    -108.059074357   -52.6627518246   -137.238899605   -29.2639813182    17.8797622
4601572744  -29.540188484     16.9801824806   -7.90288517868    136.945953872   -52.2422599755   -158.844050478   -29.3658358912    16.4116506044
4613368288  -29.5228020559    16.907976151    -13.0168206436    97.6815485632   -53.5257153197    176.235945606   -29.4881611055    14.8861824301
4625163832  -29.5060474221    16.6944458574   -15.0732102992    68.5149551304   -49.9654035962    132.997251081   -29.7292885103    12.8789071234
4636959376  -29.4935897286    16.4182318008   -15.5056057744    41.0476658455   -45.2023818389    78.5150175645   -29.8994941652    8.83852847478
4648754920  -29.5043362588    16.1965521796   -14.5474069687    13.7770506424   -36.87765365     -1.06724382213   -31.385434052     2.4321843293
4660550464  -29.456967109     16.0566813399   -11.8994945597   -15.3368898633   -43.9489905386   -80.7121436647   -31.3361920124    14.7638048516
4672346008  -29.3985204435    15.5484830531   -6.92031178577   -51.2601655409   -47.4358434405   -135.259839305   -30.5223093105    14.4373724311
4684141552  -29.4863150609    13.7881304982    1.34171599902   -136.281084495   -48.2252440675   -164.341475123   -30.0816598954    14.1471347744
4695937096  -29.5808610595    15.1754046337   -5.2376111545     127.767708853   -49.0891505792    143.88580837    -29.635469824     15.5946393812
4707732640  -29.5217837087    15.0441634931   -9.72748655719    90.1612422733   -48.089828641     124.339662858   -29.1949713982    17.4882320468
4719528184  -29.5063974088    14.6650935057   -11.6886098256    60.1899358458   -47.5153795222    78.8915278464   -28.7090911292    18.3982617647
4731323728  -29.5093946181    14.2879371001   -11.9889818206    31.0644704309   -40.2228873561    45.6813745133   -28.0644446132    18.9896521887
4743119272  -29.510483796     14.2943698096   -11.0113766132    1.67045378951   -40.0711985646   -54.8084098003   -27.822839635     13.0843751794
4754914816  -29.4584513855    13.9984355434   -8.5391108398    -29.7359736757   -42.5263049708   -125.147740959   -28.6343879097    13.0113275984
4766710360  -29.4158511568    13.5030185838   -3.69431754001   -69.7097825949   -45.5804347331   -163.591978607   -29.0016534629    14.3012799355
4778505904  -29.4446019166    12.2771194463    2.55511719913   -157.257318666   -47.1128273389    140.620969994   -29.3312873614    14.7451321634
4790301448  -29.5670694321    12.4887132739   -3.12802346329    115.478963384   -46.1634867488    113.104963315   -29.4999392858    13.9789285251
4802096992  -29.5802543034    12.4120887545   -7.27548583799    75.0766345112   -47.5842711913    68.5436736485   -29.7016994357    12.5796476442
4813892536  -29.587918765     12.311975841    -8.96572358559    43.3797292538   -45.4446352677    41.2090643424   -29.8528972591    13.0565767658
4825688080  -29.6079622074    12.2988247944   -9.13579681094    13.5041391314   -40.8165307968   -12.1225426602   -29.9092048958    14.4580551999
4837483624  -29.5655674596    12.3881473168   -8.04002010642   -16.5023208435   -40.012930194    -85.7421197662   -29.6023063096    15.3929575809
4849279168  -29.5234722214    12.0054513655   -5.37048724668   -49.3483366428   -42.1994790182   -138.049956173   -29.3952041769    13.2916354585
4861074712  -29.5269096258    11.6147879802   -0.186416666771  -93.7636995779   -45.7847943415    165.942966296   -29.5366481424    11.629517643
4872870256  -29.515672172     11.1916670767    4.01086695217    169.104412562   -45.3247781606    121.673969198   -29.686808201     11.697540423
4884665800  -29.5651583102    10.723257596    -2.02363772161    97.0500705632   -46.1673318781    83.4925561506   -29.7394810532    11.203998275
4896461344  -29.6163189047    10.4734421063   -5.69252026746    58.974105544    -42.7103250082    22.7243447042   -29.8749602412    11.6442876593
4908256888  -29.638071253     10.4601221207   -7.4598207144     26.5655828773   -42.642539342    -9.87159872424   -29.9821963308    13.1222543549
4920052432  -29.6238740351    10.5205740169   -7.73044183638   -4.44013258863   -39.6016508307   -57.8966394473   -29.9571200629    14.9952255662
4931847976  -29.5540574166    10.196966921    -6.74946648945   -35.901491331    -38.6382216028   -118.224413553   -29.6248979112    15.5876180481
4943643520  -29.5442735219    9.46163494563   -4.2011803909    -70.7392445843   -39.4439662856   -164.754810482   -29.366727684     13.6385243761
4955439064  -29.6160186443    9.12832950732    0.379422147207  -119.285671791   -41.930094209     130.24531457    -29.506485429     11.8238554205
4967234608  -29.6248947895    9.1162188484     3.10869454819    151.811080388   -40.9606385212    104.585281815   -29.5258241871    11.0922966008
4979030152  -29.6543844637    8.48103995218   -1.58155125041    83.4609857222   -41.6961684399    49.6004159175   -29.6282551064    9.255933693
4990825696  -29.7041168212    8.50567277114   -4.76691595381    43.5840203783   -42.0331917593    5.85660319081   -29.7773129239    8.69225311841
5002621240  -29.7012322581    8.52065507184   -6.1911952159     11.6263495275   -40.8746146525   -32.2537208385   -29.8146810366    8.65316684435
5014416784  -29.6457460036    8.38005170562   -6.27443219827   -18.9401290995   -41.9889491218   -89.3232581009   -29.7774312598    8.61277483578
5026212328  -29.6147827525    7.86985311848   -5.07848817545   -50.2025950214   -43.2345111122   -144.998834738   -29.7581783895    8.25311548335
5038007872  -29.6416550055    7.31465608621   -2.31726655546   -85.1821082478   -41.3031109462    162.427495554   -29.7816881504    7.90328066195
5049803416  -29.6728704493    7.322114756      2.60047190081   -135.545378082   -42.6878573905    126.720070883   -29.8225821032    8.20835848996
5061598960  -29.5738625939    6.60446485839    4.37684536128    130.214693887   -42.3968319507    69.4625592711   -29.6052830947    7.98606667166
5073394504  -29.7293409476    6.15274180819   -0.868846935221   67.3761607466   -41.2596729557    27.0943948436   -29.7039837469    6.86194529038
5085190048  -29.778940252     6.54496306425   -4.22115428963    28.5993674403   -42.8877415902   -18.4345541259   -29.7787061471    6.89593915665
5096985592  -29.7442507402    6.49147241321   -5.75022375222   -49.9207063748   -43.8936959283   -49.9143994385   -29.7583463598    6.77717745547
5108781136  -29.7342900826    5.79798877849   -5.8565752687    -126.804779148   -42.9607622751   -110.508397408   -29.7711471237    6.27504098754
5120576680  -29.7914655809    5.52024762633   -4.6722892616     154.991673133   -42.3342437507   -138.430018116   -29.839662915     6.44101006506
5132372224  -29.730484156     5.5239400921    -2.0383801969     72.0504399867   -40.2448434141    165.064555699   -29.7416517832    7.02398793735
5144167768  -29.8286777032    4.10854171818    2.01683828407   -27.9717642719   -41.3095970796    114.405356839   -29.7092503183    6.01915460854
5155963312  -29.8542927971    5.89778226252    2.43923900336   -155.217059735   -39.7020337897    63.1718492818   -29.6244597547    6.71624933904
5167758856  -29.7617064314    4.59910271064   -1.40468609684    101.918101496   -41.2087174769    16.1584827229   -29.645298128     4.64871372961
5179554400  -29.7944393772    4.72338116803   -4.00691096808    18.4372314913   -43.5183153587   -47.047745401    -29.8080018209    4.72045496966
5191349944  -29.7648706762    4.46994160351   -5.29921874681   -15.2114892015   -42.959031636    -105.465278945   -29.703176797     4.75830088799
5203145488  -29.764707192     3.97026620198   -5.36497246135   -46.242729033    -40.7569937796   -132.704523062   -29.635618188     4.80602705545
5214941032  -29.823771202     3.30674976852   -4.24286221144   -78.209544331    -39.6584753429   -174.553844372   -29.6203518176    4.97646062916
5226736576  -29.9782016348    3.13917470305   -1.59599645795   -115.389213758   -37.8008911528    138.600246149   -29.6436608325    5.77722872396
5238532120  -29.9414318576    4.84205874609    2.6284476235    -169.323479924   -35.2157786455    70.229472314    -29.395025907     6.98770782475
5250327664  -29.7877853643    3.41952615459    3.30604850918    104.912382239   -38.9188140605    31.5317619178   -29.3926165547    4.02864140163
5262123208  -29.8903948495    3.15978064863   -0.984089782174   44.9590905944   -41.4250633411   -17.9728241361   -29.7273403525    3.65212409378
5273918752  -29.865680106     2.97508044241   -3.84682073039    5.68927831855   -46.1913336301   -60.435031727    -29.885615918     3.01482511696
5285714296  -29.8612454146    2.64493811896   -4.95960268548   -28.1179404553   -45.8045710349   -105.302239978   -30.0479932255    1.63537945682
5297509840  -29.8811086       2.27241229995   -4.84704609211   -60.8900485956   -43.8197827091   -133.910555545   -30.1162395018    0.311600394129
5309305384  -29.9437026927    1.97344114633   -3.44308125706   -95.0330186378   -44.0776254956   -171.675089926   -30.1643768968   -0.751437685475
5321100928  -30.0326646763    2.02203306327   -0.719335597929  -134.889764322   -41.1273683894    161.946163676   -30.2296457038   -1.38012009512
5332896472  -29.8667392012    3.08912599947    2.91150710039    166.059220781   -38.9216412368    76.4187958665   -30.1507047494   -0.479930453238
5344692016  -29.8457770474    0.702691202228   2.2962118736     87.630956944    -38.7645548645    26.800788898    -30.1563337729   -1.10543609623
5356487560  -30.0408499557    0.942850661284  -1.3773659297     34.0607956262   -41.9348397479   -27.7746385103   -30.1612967291    0.350188334095
5368283104  -30.0491334181    1.03737512862   -3.9079430742    -3.38871453375   -43.8198588401   -78.4530420515   -30.0465941442    1.10868650111
5380078648  -30.0267660802    1.00827745368   -4.99149920107   -36.3444182842   -44.0622100685   -93.7417991737   -30.0078209519    0.864994879866
5391874192  -30.0143036687    0.867853964729  -5.00295133634   -68.5756191676   -46.036507661    -141.240365089   -29.9872536565    0.300359499753
5403669736  -30.0162326306    0.853102033411  -3.85149380064   -102.585693797   -45.9433463276    175.226798672   -29.9864728848   -0.250175568521
5415465280  -30.0188992422    1.02688777703   -1.43308914143   -142.438765311   -39.555038769     135.523759271   -30.0211550075   -0.8710636078
5427260824  -29.7654083382    1.16555812307    1.89616161748    160.639515816   -34.7760564932    82.6801502798   -30.0083835755   -1.50099665159
5439056368  -30.0581910948   -2.00325266134    1.75090946733    84.6441957805   -39.2852939847   -4.3802415864    -30.3902151788   -1.91292479036
5450851912  -30.2623107979   -0.519968807316  -1.56855857267    28.1684867584   -41.349078189    -58.8980121788   -30.2986509329   -0.263704177028
5462647456  -30.2498420785   -0.143837382082  -4.0473317235    -12.0126051504   -46.8893580045   -80.3979952033   -30.1633761488   -0.455848009701
5474443000  -30.1776504613   -0.447872877169  -4.94011536767   -46.2461880432   -48.0088144317   -125.709663033   -30.1504464874   -1.31452676442
5486238544  -30.1348733614   -0.874228501107  -4.69401199528   -78.665910995    -45.3329057817   -175.786971068   -30.1724357108   -2.33591704191
5498034088  -30.1313052355   -1.05353802857   -3.1893499397    -112.805233152   -43.8405321833    143.812242102   -30.1952985028   -3.10501713215
5509829632  -30.0987459222   -0.969605791024  -0.339729701786  -154.116048278   -42.4395908855    110.979716524   -30.183944407    -3.60680970977
5521625176  -29.9435270939   -2.31121474796    2.95719520907    143.117315515   -41.2330076761    19.7312603322   -30.0829234354   -4.84794409938
5533420720  -30.2444556037   -2.91584782256    1.49686079254    67.6316187577   -43.5808424758   -27.683263063    -30.3140916294   -4.84450206579
5545216264  -30.2963704477   -2.32295871379   -2.03479633661    17.5514494461   -44.5005974471   -67.2434715385   -30.3285971463   -3.62862664561
5557011808  -30.2996458256   -2.52870362251   -4.23513868107   -19.205032297    -45.8287637637   -103.896132136   -30.3427033138   -2.69145955818
5568807352  -30.324593072    -2.8554096026    -5.30289124548   -53.3235983978   -45.7713239075   -115.809625472   -30.345477065    -1.89141761409
5580602896  -30.3643797546   -3.18054556422   -5.22038924302   -87.3646128657   -46.2868854851   -149.576416428   -30.2978435821   -1.13193803624
5592398440  -30.418191026    -3.36040745344   -3.99975997418   -123.512540694   -44.8308216133   -179.25674138    -30.1960641498   -0.101340873077
