! Micran, Research & Production Company
! Date: 2025-04-17 14:09:12
! Frequency	S11	S21	S12	S22
# Hz S dB R 50
4000000000  -29.6362878234    30.1611240162   -27.3631876141   -6.62036008756   -28.9858538506   -107.603040997   -28.4666562582    40.0581697242
4011795544  -29.657610886     29.9012417005   -24.9237837123   -33.5759522426   -39.9693110838   -60.3353590543   -29.9883067192    32.3067004264
4023591088  -29.7015016185    29.8054130402   -19.4541769434   -62.8130032032   -45.9522083947   -53.1230333886   -29.8338584812    30.5416445848
4035386632  -29.3636674463    32.3196032802   -5.25727247249   -164.724295181   -48.9815667277   -90.3893984657   -29.7174805529    29.7845650923
4047182176  -29.473688717     28.626627207    -18.8414435341    92.8581577825   -53.9748546631   -95.3829272772   -29.5836256708    29.2719296145
4058977720  -29.515336957     28.6481469281   -23.6787201659    63.2252261719   -50.7909880937   -127.913112078   -29.4366375106    28.3293072436
4070773264  -29.5293970836    28.5538674668   -25.5751139614    37.2162508542   -53.0222207578   -162.946094703   -29.3012205774    27.111719908
4082568808  -29.5363693285    28.325478136    -25.8812517754    13.9144479525   -49.7556533903    166.546320695   -29.1970357069    25.2464528343
4094364352  -29.5363792536    27.9144597503   -24.93895101     -12.1634098376   -42.2316538484    115.976080103   -29.4822644762    21.7607110482
4106159896  -29.5265577269    27.3287119637   -22.1239563714   -37.4084172477   -41.2809340886   -7.6582418787    -29.9278414468    27.6197405626
4117955440  -29.490195169     25.9172216605   -15.8528558119   -69.0876616377   -48.9574694706   -68.963398166    -29.3086099701    27.8371933848
4129750984  -30.4452276592    28.6936560132   -5.54231285557    155.667781736   -51.3987310144   -96.4270929881   -29.1007874124    26.8635898996
4141546528  -29.5418216927    28.0936004237   -17.9800566739    86.0288585995   -50.76721335     -119.664523517   -29.2682273198    25.4317285481
4153342072  -29.4621697958    27.2754583951   -22.5658304445    57.7699739147   -51.7235892456   -116.365828823   -29.442232814     22.6806093789
4165137616  -29.4411685858    26.7361675815   -24.372207464     31.5533597935   -44.9525271784   -158.924725925   -29.1933814078    19.6674469083
4176933160  -29.4352965721    26.2674117019   -24.5736988423    6.21371958772   -38.0267949269   -160.114234169   -27.6693082541    19.6375244384
4188728704  -29.4488771786    25.8443779484   -23.3640320161   -19.4940273021   -36.9721999247   -64.6823792239   -30.3408704537    40.1028037856
4200524248  -29.4638053485    25.3174017069   -20.5669289112   -47.1827334653   -46.2698523483   -63.4949654735   -30.5611773485    25.8935290356
4212319792  -29.5175560912    24.6060761175   -14.1087230334   -81.0095846304   -49.5823994548   -84.8882009319   -30.0972474001    23.7263872816
4224115336  -29.5899558934    26.5766805855   -6.95423295185    139.156251001   -53.5934050443   -99.3822189655   -29.8252986516    24.6766074743
4235910880  -29.4555497007    25.2465015715   -17.6518573936    81.3947324781   -50.0481104783   -121.263656477   -29.6855953235    26.1706988538
4247706424  -29.4618594848    24.8840011957   -21.4873805823    52.9936108429   -50.1894602698   -142.114459839   -29.5555769157    26.7642849797
4259501968  -29.4744771032    24.6159991328   -22.9781812097    27.0407135877   -46.7996441276    163.82568936    -29.4020819663    27.5734422253
4271297512  -29.4919122731    24.3775241502   -23.1430086728    1.36132982963   -39.0637747943    117.668691061   -28.7011989062    28.5080462244
4283093056  -29.5185105784    24.3180965245   -21.9597589009   -24.2746218742   -43.0816247934   -10.301191319    -29.1876793898    21.7204646908
4294888600  -29.5324078748    24.3820500238   -18.8287249445   -51.5976594519   -49.9344080516   -50.370463788    -29.3886632173    23.0753733359
4306684144  -29.5001278685    25.2605172326   -11.7822332054   -90.1548192124   -52.131326552    -87.2839654333   -29.4084469514    23.2293072077
4318479688  -29.1811176847    21.6710650815   -8.66201127707    127.16082109    -53.3957629175   -118.959960293   -29.435974334     22.901921475
4330275232  -29.4480103301    22.2113791775   -17.9449163917    78.5581168368   -52.3004961097   -123.139853798   -29.4858771197    22.5786302669
4342070776  -29.4684409089    22.3766532159   -21.6944864646    50.8264515145   -49.5815919757   -142.362210369   -29.6143418104    22.6000768658
4353866320  -29.4734074243    22.3200960635   -23.2724283017    26.0336066896   -46.7189465755   -152.188937605   -29.8311955703    22.7046925975
4365661864  -29.4714996226    22.1953444981   -23.237229407     1.60285062212   -39.422387245    -167.445100557   -30.4451193014    22.0769854109
4377457408  -29.4726977606    22.1270991046   -21.7026513738   -22.9262881583   -35.5172165979   -91.8287598439   -29.3967186444    11.8166987774
4389252952  -29.4687611763    22.0194501019   -18.1417161037   -49.4403413143   -45.1222347862   -66.2999880007   -29.302613029     18.5666699216
4401048496  -29.3853547733    22.2415151226   -9.65054366445   -91.7711301616   -48.0124983068   -85.4684982841   -29.4786131434    19.7399140653
4412844040  -29.4461483043    20.2620775888   -10.2699299483    123.86438155    -49.0276682087   -122.160931078   -29.6321850288    20.1827727508
4424639584  -29.4883568028    20.5618138039   -17.7994874351    83.5308523463   -49.7757818446   -140.574921527   -29.7072877612    20.6514944
4436435128  -29.479841616     20.4918290501   -21.0545141496    56.3256903258   -47.1533201225    178.954524968   -29.7749612774    21.5141092066
4448230672  -29.4660901642    20.3603720828   -22.2846777851    32.0354489154   -42.0935112279    167.951730349   -30.045506492     23.8736907901
4460026216  -29.4383788367    20.4970188927   -21.8724690768    7.43778371713   -23.451739969    -119.522074537   -32.7557551923   -64.1827047536
4471821760  -29.43581262      20.1030877691   -19.9496574094   -17.4827930739   -45.9439310786   -59.4676218355   -29.0265020931    14.6947525528
4483617304  -29.3887307716    19.9717582501   -15.8701101118   -46.2485922302   -48.38396006     -94.9087238359   -29.2540021287    16.9657699069
4495412848  -29.2309717792    19.288380242    -6.92664047393   -101.509638921   -50.7309484788   -107.548636563   -29.3552483537    17.621455526
4507208392  -29.5067235587    18.5310005308   -10.2823903709    133.367206951   -54.6382908146   -139.861275713   -29.4701071504    17.935821602
4519003936  -29.4755149356    18.8814825574   -16.3891262155    95.5371725683   -54.2387285016   -168.446080243   -29.5842409886    18.0063157578
4530799480  -29.4600719922    18.7479598711   -18.8299863051    69.1724206312   -55.3675096585    175.231119435   -29.7382499194    17.7711313598
4542595024  -29.4517576616    18.5445630175   -19.4475849958    43.9324226806   -46.4535185381    155.2875817     -30.0140443798    16.9342169768
4554390568  -29.4462392935    18.2437492549   -18.6536287776    18.8211219039   -38.4807628257    110.037611512   -31.2492558593    14.8089513822
4566186112  -29.4604321676    18.1563146769   -16.3762624042   -8.53016721582   -37.6481434165   -46.4274572909   -28.3788695167    27.5126683295
4577981656  -29.4304730914    17.8316929327   -11.8518509285   -40.4283820748   -47.3751502136   -99.9653080008   -29.0685159663    20.0158362376
4589777200  -29.3874766171    16.9611121661   -2.78162759067   -108.616626279   -52.6362283366   -107.664756689   -29.2593398082    17.9263027017
4601572744  -29.5417500913    16.9733634725   -7.93627501122    137.085516602   -50.8256730735   -148.971697082   -29.3690362098    16.4135545638
4613368288  -29.5214440904    16.9250740292   -13.0538361056    98.1598478617   -49.0390635483    163.323077492   -29.4866700442    14.9139823683
4625163832  -29.5042339418    16.7018834249   -15.0962207658    68.5307942632   -46.8333858485    136.710474462   -29.727574794     12.9068122075
4636959376  -29.4904486779    16.4239717033   -15.5063315024    40.8575977803   -43.9039255505    98.5692909291   -29.9059516527    8.75818152629
4648754920  -29.4943399719    16.2270890584   -14.5376449895    13.6486818875   -42.0975713775   -11.7924731382   -31.3621121942    2.46711035314
4660550464  -29.4586036357    16.037546796    -11.9591891525   -15.4745352005   -45.8742199246   -73.9287252326   -31.3131403272    14.6554370441
4672346008  -29.3972601867    15.5623683229   -6.95719806662   -51.4966210077   -46.6633179583   -126.740871199   -30.5229211155    14.4351417032
4684141552  -29.4805262362    13.8306822007    1.16059515062   -136.133100195   -49.205459192    -157.571242815   -30.0747398109    14.1101157669
4695937096  -29.5842094628    15.1652056241   -5.3021480335     128.148686786   -49.3096832215    157.175804035   -29.6369910166    15.6056504092
4707732640  -29.5207330553    15.0250690693   -9.76732661536    90.2911005568   -48.3443811574    109.608974154   -29.192184707     17.4502484863
4719528184  -29.50621555      14.67454772     -11.6981518005    60.0738154836   -48.3446624706    87.4347843856   -28.7106601498    18.3539455554
4731323728  -29.5131751281    14.329433986    -12.0408203895    30.9474010021   -42.2601659073    27.7924363062   -28.0702384801    18.906198356
4743119272  -29.5134016424    14.3266804396   -11.0708670291    1.8887146071    -38.1399299233   -56.1556577052   -27.8075272403    13.1738564393
4754914816  -29.4555094846    13.9941283906   -8.57143752481   -29.9856487204   -41.635713395    -128.316989442   -28.6342361887    13.0202633073
4766710360  -29.4204031774    13.4905022386   -3.77263522702   -69.9196119515   -45.9149193529   -172.206153192   -29.0068774221    14.2893881701
4778505904  -29.4603935026    12.2652245629    2.45958635958   -157.365023329   -45.0914480882    146.78209369    -29.3452305681    14.7312275764
4790301448  -29.573687806     12.4863583375   -3.18994981112    115.839308093   -47.6289331972    124.426835126   -29.5036925117    13.9837144967
4802096992  -29.5795112167    12.4142757074   -7.26649861088    75.2244566288   -47.4420196654    70.3954686535   -29.7011545132    12.5870771373
4813892536  -29.5898438525    12.3179560145   -8.97724754132    43.4658467131   -45.7427494103    33.5671002098   -29.8513375832    13.048320794
4825688080  -29.6017723945    12.2864676758   -9.15369667048    13.5085418142   -42.8929804454   -6.9716013201    -29.9051813247    14.4095163446
4837483624  -29.5683371158    12.3587693504   -8.0461811045    -16.7470894502   -41.3314811217   -81.900495369    -29.613658922     15.2661956571
4849279168  -29.5301047957    11.9892425082   -5.38794670282   -49.6035884873   -43.8093954517   -143.885585263   -29.4185932554    13.3251006437
4861074712  -29.5229581872    11.6683463319   -0.271133804755  -94.2159282933   -47.8704828253    168.50788615    -29.5416989248    11.6846574899
4872870256  -29.5167355181    11.175940734     3.89090421124    169.22490269    -45.5889764613    122.59969587    -29.68366476      11.691805757
4884665800  -29.5640210475    10.6859668078   -2.06392667123    97.0655911296   -45.7810892501    73.7284773331   -29.7401723658    11.2048084518
4896461344  -29.6133985003    10.5448199186   -5.75541795472    59.1473880199   -46.1732717673    25.8377637444   -29.8610546867    11.730624731
4908256888  -29.6358471862    10.4191153938   -7.4744541161     26.6267744879   -42.4596372373    3.756120855     -29.9942976203    13.0634533909
4920052432  -29.6167592965    10.4835602789   -7.77863706666   -4.58665329008   -41.6304084429   -64.955537595    -29.9391674268    14.8679131047
4931847976  -29.5527199828    10.2076875847   -6.76523261155   -35.8763631841   -38.2682663918   -117.08701898    -29.6187587202    15.6882053172
4943643520  -29.5405536256    9.47094973981   -4.25943395715   -71.0171120478   -39.2388844596   -160.47710688    -29.3791266787    13.6329891408
4955439064  -29.6207764684    8.95728507722    0.316382144473  -119.408889548   -40.4483234174    146.970871521   -29.5054777675    11.6016798627
4967234608  -29.6256830816    8.93726924387    3.05122743445    152.06927748    -43.3440143136    100.628432887   -29.5203782566    11.0051618731
4979030152  -29.6480350776    8.53736007801   -1.61616250623    83.5099016162   -41.8358200777    59.8698722521   -29.6186459518    9.30179917053
4990825696  -29.7093893748    8.48149605055   -4.79730858492    43.6525701247   -40.7643661422    3.57067967767   -29.77758752      8.6922902405
5002621240  -29.6920088836    8.53109184879   -6.19848841689    11.470069764    -42.7824905076   -41.1208834481   -29.8028392744    8.66819854741
5014416784  -29.6451835518    8.31284523809   -6.28434411342   -19.1047434261   -44.7215512702   -98.0088671525   -29.777406232     8.53116674086
5026212328  -29.6061212118    7.90507297742   -5.0950808086    -50.2639426712   -41.4204320361   -134.263796212   -29.7498997877    8.30723361438
5038007872  -29.6317391557    7.30915795482   -2.37409149062   -85.4393249177   -41.3515196117    172.882588571   -29.7756775426    7.89953915327
5049803416  -29.6795437276    7.37773967509    2.52398116916   -136.026928147   -41.8778598436    122.391173044   -29.825841385     8.26224143489
5061598960  -29.5778873961    6.77941871007    4.28812001853    130.419519348   -41.713048619     81.8998611466   -29.6065110934    8.13214520151
5073394504  -29.7382319457    6.1609388004    -0.910932610021   67.3341821711   -41.3868398365    19.4180654877   -29.7150768376    6.88044656237
5085190048  -29.7830341469    6.53979150202   -4.23613859406    28.707650011    -41.9553013522   -18.5733679135   -29.7851774049    6.88186356164
5096985592  -29.7411518276    6.49466676376   -5.75915627705   -49.9926499099   -43.5310351613   -55.3893141771   -29.7540384127    6.76178555074
5108781136  -29.7307833922    5.79275874533   -5.8802575903    -126.960802673   -42.247668089    -106.134883      -29.7671203846    6.28872968402
5120576680  -29.7934896957    5.51414284431   -4.67184115336    154.950480225   -41.8645971963   -138.131999502   -29.8385954318    6.43193173116
5132372224  -29.7408739658    5.50941290843   -2.06195428629    71.9165463567   -41.1647672104    172.30651271    -29.7511962832    7.00991164117
5144167768  -29.8461176089    4.04221171104    1.95064752373   -28.1300005384   -40.1722691339    105.495456272   -29.7284731137    5.96006121447
5155963312  -29.8840847058    5.7525151075     2.39450313044   -155.08030571    -41.1410747906    79.5841527096   -29.6509557083    6.56923760652
5167758856  -29.7756908988    4.60714121041   -1.43100158364    102.101920591   -42.1162695341    4.46074257376   -29.6601944187    4.66540369241
5179554400  -29.799233179     4.76894991528   -4.0419362482     18.5151182886   -41.8462547101   -51.9884045481   -29.8111094984    4.76570452424
5191349944  -29.7686472814    4.50337462639   -5.34055008365   -15.3901535439   -42.2043523737   -96.1882871994   -29.7081975272    4.78754687043
5203145488  -29.7699659432    3.95772257064   -5.38850010628   -46.1568351045   -41.8604301826   -135.66266733    -29.6411220157    4.79579397827
5214941032  -29.8257257686    3.29553582208   -4.25881238433   -78.39795075     -39.4471374948   -176.740488839   -29.6275612015    4.96709438104
5226736576  -29.9775341883    3.14790211325   -1.64715276416   -115.503732954   -37.843780219     138.304379606   -29.6452525033    5.77393384768
5238532120  -29.9230593081    4.57271847602    2.56332039027   -169.377533318   -36.8041808237    61.9553877933   -29.3823945865    6.78515230377
5250327664  -29.8475878326    3.3047003711     3.21119268876    104.917385339   -40.1505164955    5.85159702046   -29.4499409685    3.99388964029
5262123208  -29.8992538873    3.33214571566   -1.03544271398    45.0011463896   -41.181295235    -41.9330100341   -29.7347815574    3.82786502387
5273918752  -29.8697868008    3.0314759628    -3.9277037285     5.81652016039   -43.5782342128   -63.2318150897   -29.8931437021    3.08527932938
5285714296  -29.8627719064    2.69366789028   -4.97601021603   -28.3013489844   -44.2367973271   -93.3563647765   -30.050695111     1.68010730567
5297509840  -29.8874926732    2.28713006579   -4.86315637484   -60.9448626819   -45.8611694458   -132.911597831   -30.1214713847    0.314055671733
5309305384  -29.938443837     1.99297941619   -3.48866065446   -95.0514948011   -44.5601025037   -162.725633373   -30.1584052462   -0.73362751041
5321100928  -30.0266222433    2.19063309591   -0.767104239765  -135.058238179   -42.8479976049    141.510529176   -30.2235901732   -1.21247983663
5332896472  -29.9164053755    3.03626948228    2.84852038651    165.912881745   -40.482723911     97.3526188867   -30.2061045872   -0.545652972811
5344692016  -29.8436842527    0.760874896019   2.24914098865    87.6358042546   -39.1857271599    29.6730609467   -30.1516062757   -1.03330076149
5356487560  -30.0431894981    0.98417826106   -1.41225047775    34.1960040767   -41.6141267933   -33.7372626828   -30.1628309347    0.390344329303
5368283104  -30.0423201009    1.00979079617   -3.93014166107   -3.4694882233    -44.9904130394   -89.6424283104   -30.0401018962    1.07851952135
5380078648  -30.0218039859    0.987763660781  -5.03168708883   -36.5495657693   -43.655269797    -103.94496773    -30.0032809439    0.844260029163
5391874192  -30.0064693599    0.853464758235  -5.04067163954   -68.6989815403   -43.5848201087   -137.650572801   -29.9806307015    0.289911996626
5403669736  -30.0048784495    0.744971486387  -3.87694388216   -102.816019305   -42.1727859157   -163.384080268   -29.9763628518   -0.370320769736
5415465280  -30.0087334464    0.933004365691  -1.42957204934   -142.689565558   -40.836894839     146.485289009   -30.0104060871   -0.95649813912
5427260824  -29.7953568178    1.31351290426    1.78702671887    160.468796083   -34.233693721     93.2885631627   -30.0362865097   -1.33698519879
5439056368  -30.0954508887   -2.08590811322    1.68779714114    84.6354475928   -37.6095185987   -19.0805102352   -30.4312221613   -2.07593129946
5450851912  -30.2653591921   -0.557444338439  -1.61520066159    28.4192428221   -41.2295018609   -53.0185761796   -30.3025101571   -0.322745972419
5462647456  -30.2482528651   -0.123031466051  -4.03872342525   -12.1587458948   -45.7533199302   -82.463736799    -30.1616212226   -0.428261941633
5474443000  -30.1713555298   -0.50954140529   -4.97828362044   -46.1972917048   -45.3732011307   -147.667140936   -30.1457325094   -1.37457334866
5486238544  -30.1348452831   -0.828631671311  -4.70770176088   -78.8792219539   -47.8726687409   -170.213998249   -30.1711200463   -2.27598603662
5498034088  -30.1232742181   -1.00812093844   -3.23297201127   -112.908629873   -46.6123109206    139.658123844   -30.185304169    -3.03813615213
5509829632  -30.0810934567   -0.867942976739  -0.421094306401  -154.295881665   -42.0370592223    89.106144962    -30.1657064372   -3.48813085798
5521625176  -29.9529613522   -2.06841678246    2.88453535533    142.943958063   -42.2807983148    41.4744538505   -30.0955861096   -4.58669970149
5533420720  -30.2306836366   -2.96878795866    1.40730382262    67.9481042449   -43.8177201352   -13.9411561889   -30.3003455139   -4.8910527072
5545216264  -30.2971106869   -2.36175903735   -2.0394257463     17.6354859052   -45.3072742874   -60.4038532591   -30.3295603236   -3.66313302531
5557011808  -30.2965449398   -2.54608112183   -4.26893796564   -19.3387525249   -45.9011341756   -112.325999556   -30.3401292673   -2.71036083723
5568807352  -30.3171136024   -2.91613161497   -5.33552199465   -53.424468812    -43.4525115961   -135.052003911   -30.3350042771   -1.95160785738
5580602896  -30.3717657364   -3.20277614437   -5.2281195053    -87.3931436799   -46.2141751838   -169.921495197   -30.3045351556   -1.1498451996
5592398440  -30.4276834452   -3.32912171799   -4.02076323572   -123.734704728   -44.0643429318    162.885305984   -30.1998901767   -0.069453863007
