! Micran, Research & Production Company
! Date: 2025-04-17 14:09:13
! Frequency	S11	S21	S12	S22
# Hz S dB R 50
4000000000  -29.6350483383    30.1665766539   -27.3306910127   -5.18759250239   -28.3283989607   -111.582919473   -28.4548930484    39.9764303585
4011795544  -29.6589722203    29.8976283713   -24.7127641386   -32.9059338349   -41.2554846475   -41.3456848949   -29.9921252121    32.3083511594
4023591088  -29.6991568698    29.8027646523   -19.3557872249   -62.6595375024   -45.82329274     -75.5794769402   -29.8337722771    30.5315742877
4035386632  -29.3648233206    32.1978114721   -5.57303970421   -164.742340933   -49.3022706301   -84.8814129315   -29.7161417972    29.7930094561
4047182176  -29.4746575041    28.6362243973   -18.7745342904    92.6009984905   -51.1432642721   -107.247252132   -29.5842181026    29.2710291964
4058977720  -29.5152668062    28.6505110214   -23.6520972076    63.6066878975   -50.8017090422   -138.006049219   -29.4365722535    28.3260219513
4070773264  -29.5295460076    28.5569826257   -25.6660390774    38.3223411317   -51.2683551929   -151.446394628   -29.3009051477    27.1142919562
4082568808  -29.5361500561    28.3240529348   -26.0017280505    12.7115853686   -47.519927026     154.877750897   -29.1964580874    25.239700654
4094364352  -29.5370361992    27.9179619966   -25.0006339098   -12.1078321977   -43.2736458319    108.298424366   -29.4890779584    21.7973039893
4106159896  -29.5262985378    27.3197047559   -22.2095561184   -37.9356400395   -43.7462537473    0.697023090581  -29.9207349099    27.596760108
4117955440  -29.4925724371    25.932314781    -15.9787102241   -69.2522092015   -47.5956468455   -52.7108713417   -29.3123904905    27.8516835908
4129750984  -30.4311812458    28.5935143679   -5.74050318911    155.288708722   -50.7462348422   -100.488555372   -29.1006052175    26.8585525422
4141546528  -29.5424146471    28.0865467336   -18.0952869966    87.1456135666   -51.0454585538   -123.212795884   -29.2691150034    25.435861196
4153342072  -29.4625668452    27.2740692134   -22.605080061     57.125104668    -51.5766085151   -112.345743582   -29.442090496     22.6872378898
4165137616  -29.4413928723    26.7312572643   -24.3829649728    31.0496552148   -46.6926086413   -167.191906883   -29.1942532731    19.6359948707
4176933160  -29.436448692     26.2668251783   -24.6434166446    6.29109050945   -39.319162831    -156.511001274   -27.6777481346    19.561298833
4188728704  -29.4489852656    25.8323587244   -23.5282658766   -19.6631587229   -39.0197054469   -63.8840648005   -30.3481802449    39.9589978665
4200524248  -29.464130592     25.318295862    -20.560867708    -47.2481564817   -46.2026546097   -62.1430627136   -30.5620588214    25.8837180365
4212319792  -29.5190913111    24.6176159107   -14.1350053467   -81.2024710827   -49.6822877914   -73.701454017    -30.0967621262    23.7212121282
4224115336  -29.5920807656    26.5289980693   -7.00174147264    139.919655977   -51.5867044875   -89.3416799646   -29.8230626813    24.6556669413
4235910880  -29.4552554312    25.2416415909   -17.6934440578    81.5121403749   -52.6150935643   -116.241262595   -29.6844087546    26.1708485766
4247706424  -29.4618332723    24.8842436193   -21.3722188873    52.9018688031   -50.5763088587   -144.958560792   -29.5562145969    26.7603659317
4259501968  -29.4748142843    24.6234020986   -23.0592433624    27.3199139179   -46.4107065306   -175.278774056   -29.3997861151    27.5879005278
4271297512  -29.4917343693    24.3750332498   -23.2113327231    1.78556884643   -38.3517813589    116.614226785   -28.7188423861    28.4350481604
4283093056  -29.5186712204    24.3235142113   -21.9583908799   -24.3953300629   -42.1323422287   -14.3359683472   -29.1905780235    21.7442197084
4294888600  -29.532136798     24.3893746018   -18.7798536091   -52.2993649311   -47.9438896023   -47.6536207003   -29.3867732657    23.0895407172
4306684144  -29.4980217051    25.2603970036   -11.8512619252   -90.1786973992   -52.5354788414   -80.1698347836   -29.4086002828    23.2369850176
4318479688  -29.1819793907    21.6908871355   -8.76293431152    127.427823697   -51.342630653    -107.78168361    -29.4370862877    22.8901804162
4330275232  -29.4474148654    22.2197899294   -17.8942427577    78.5181705889   -50.4506206649   -136.316306687   -29.485351042     22.5849753573
4342070776  -29.46829724      22.3756232736   -21.7687390169    50.6070701684   -50.1980440021   -140.055702364   -29.6149475031    22.6023483477
4353866320  -29.47350393      22.3179035848   -23.2849340165    26.0402061654   -48.1025820533   -152.791057869   -29.8318322595    22.7038125295
4365661864  -29.4705768366    22.195895562    -23.2666675262    1.69112059243   -38.4288792085   -168.182800082   -30.4498458734    22.1539556513
4377457408  -29.4751835875    22.1217300755   -21.6931073747   -22.9702393509   -36.8157464051   -80.6242107919   -29.3882747246    11.6060235627
4389252952  -29.466788041     22.0182717368   -18.1666076377   -49.9127851749   -44.0290138166   -79.3677355122   -29.2973294988    18.560666962
4401048496  -29.3837516607    22.2245637528   -9.79631860774   -91.8892311722   -47.3011505568   -90.7964520979   -29.4770390019    19.7317296867
4412844040  -29.4455854495    20.2563419176   -10.2623846033    123.900017422   -48.707802516    -112.407866963   -29.6330352349    20.1740612857
4424639584  -29.4881210685    20.5596443819   -17.9219176557    83.9757276354   -50.6225248835   -138.542805253   -29.7062198412    20.6494519139
4436435128  -29.4811415932    20.4904939545   -21.117647251     56.5563080935   -49.2368327547   -158.43244191    -29.7755852325    21.5094111342
4448230672  -29.4673155658    20.3654556837   -22.2277602256    32.0247563883   -43.543994345    -176.444454613   -30.0381038598    23.8344499204
4460026216  -29.4372746856    20.5319939316   -21.8715398038    7.84148304583   -22.5168714361   -118.747972457   -32.4807505495   -67.8516288269
4471821760  -29.4351916288    20.1055697344   -19.9836442716   -17.4800807589   -45.1836813129   -66.9381506441   -29.0238363224    14.7119000298
4483617304  -29.3889204934    19.9699105997   -15.8967445869   -45.989229406    -48.7881158229   -92.8095916206   -29.2526772494    16.9666474392
4495412848  -29.2355890155    19.2834562024   -7.00643482374   -101.642524431   -54.1165540465   -108.818402474   -29.3594492841    17.6390619629
4507208392  -29.5066453179    18.5326341084   -10.3265028721    133.916079844   -53.5985345598   -145.490319219   -29.4699833402    17.9487050296
4519003936  -29.4765702706    18.8811951692   -16.4116130096    95.5149012921   -52.3659605957   -147.954792833   -29.5855865375    18.015112439
4530799480  -29.4597417855    18.7557395867   -18.9124271418    69.0810727747   -50.4358472378   -179.098635155   -29.7372035873    17.7990781815
4542595024  -29.4516242224    18.5484532503   -19.4881200209    44.0348340367   -45.7621864253    162.138036464   -30.0174654944    16.9498168051
4554390568  -29.4468675819    18.2292582166   -18.6523499193    18.8589565857   -37.5420430452    102.030382622   -31.2525019759    14.8270416871
4566186112  -29.4543426527    18.1773404875   -16.4067299793   -8.39577840286   -37.3250702964   -69.0551380406   -28.3827208364    27.4893587763
4577981656  -29.4296588409    17.8139586648   -11.9038086529   -40.6124360624   -47.8098366003   -115.772171774   -29.0639676349    20.0420182948
4589777200  -29.3896493505    16.8869453376   -2.87082767361   -108.996305371   -48.6303493237   -132.537376766   -29.2590161355    17.8531617615
4601572744  -29.5392585252    16.9856043147   -8.01363017545    137.650737397   -52.1299768186   -165.264786741   -29.3637230241    16.4420485488
4613368288  -29.5219552809    16.9206959766   -13.1113571512    98.1331345263   -49.8905389609    167.877087087   -29.4886189262    14.8975090929
4625163832  -29.5054998046    16.7022157638   -15.1601816105    68.6672616845   -48.2473207845    142.754396059   -29.7319447817    12.9095496433
4636959376  -29.4943426531    16.4172383314   -15.5455507093    40.9319185319   -45.5036096306    73.2772256211   -29.9069068655    8.83149273147
4648754920  -29.4998756867    16.168897408    -14.5705094836    13.3857530837   -37.9849363472    13.1743486711   -31.3531060307    2.38795762231
4660550464  -29.4561776499    16.0420484913   -11.9841341331   -15.5180005725   -45.0673217056   -85.4510153078   -31.3216476979    14.6051672287
4672346008  -29.3993763314    15.5465917047   -7.01520733429   -51.7772410204   -47.5413935609   -133.520084979   -30.5257595503    14.4208753821
4684141552  -29.4891988419    13.8624656703    1.05843359441   -136.365840962   -48.688040449    -171.621707576   -30.0888555983    14.1614423955
4695937096  -29.5838878012    15.1577404813   -5.33780527397    128.307849916   -49.6691797952    158.580371454   -29.6351933919    15.5579240259
4707732640  -29.5230540868    15.029427473    -9.79242808424    90.3758257403   -49.8610427546    119.927105164   -29.1943385089    17.4613914981
4719528184  -29.5048632209    14.6537106135   -11.7335874809    59.9985252942   -45.7531696174    78.1809123034   -28.7084916073    18.3396134981
4731323728  -29.5158043361    14.3132550582   -12.068736625     30.9082780321   -40.6351017855    24.968158182    -28.077715284     19.0303747453
4743119272  -29.5092990683    14.3395386487   -11.0720460063    1.60640692951   -38.2326674792   -64.5725277808   -27.8092279576    13.1566996414
4754914816  -29.4605369268    13.9658820025   -8.60414820134   -29.9952813548   -43.8652592604   -133.708400167   -28.632373221     13.0333082625
4766710360  -29.4205219516    13.4769365954   -3.80249189439   -70.2321761363   -45.4488684817   -173.317070898   -29.0062784492    14.2767346207
4778505904  -29.4552644576    12.1787307885    2.33260598165   -157.784968853   -46.0856053986    160.662022256   -29.3380129718    14.6374945934
4790301448  -29.5733737572    12.4586613755   -3.23518808463    115.914564287   -49.0277707308    118.84400744    -29.5088752795    13.9442819323
4802096992  -29.5764494287    12.439070358    -7.33085443368    75.2587780562   -46.9061185058    86.3049378259   -29.6980327265    12.6148869156
4813892536  -29.5904240085    12.297472782    -9.00062973884    43.3874867889   -44.1528154825    33.6461856305   -29.8571120669    13.0311057823
4825688080  -29.5997780527    12.3042027709   -9.18972401342    13.3833095147   -43.7097211505   -14.0907559061   -29.8968013603    14.4667939737
4837483624  -29.5751304586    12.3498293569   -8.07287500271   -16.8884539617   -41.7742123597   -68.2161248058   -29.6181202203    15.2774309773
4849279168  -29.530753764     12.0253710628   -5.41250575222   -49.7211458869   -44.2738980135   -132.995024223   -29.419584796     13.361816769
4861074712  -29.535108438     11.5468261805   -0.320828634301  -94.4475070031   -43.6815310948    161.639092257   -29.5494263045    11.525886611
4872870256  -29.5254802984    11.180154186     3.81279778476    169.123716143   -45.1331722089    128.577006      -29.6902872532    11.7047794022
4884665800  -29.5632059678    10.7224992905   -2.09771040699    97.2561372197   -45.7148536882    82.4880072382   -29.7391904327    11.2402896882
4896461344  -29.6051287321    10.5077593261   -5.75991951747    59.1797064813   -43.9944449549    43.4827675431   -29.8489800748    11.6350688656
4908256888  -29.6375058412    10.4705886807   -7.49394267223    26.6229959637   -42.8732684507   -13.0341853362   -29.9929595066    13.117129734
4920052432  -29.6243711552    10.4915102322   -7.79904353661   -4.42415226114   -40.376151787    -53.633438685    -29.9514430922    14.9172395676
4931847976  -29.5712286127    10.1953919563   -6.8036628554    -36.0229704826   -41.8885255697   -104.606038356   -29.6376761952    15.5350491432
4943643520  -29.5421809545    9.46351719698   -4.26791366414   -71.1940416016   -39.2681920335   -162.21982481    -29.3684920584    13.6500437463
4955439064  -29.6275772483    9.03026481499    0.257995462606  -119.643991036   -40.2524965317    138.645683023   -29.5125607383    11.6434117211
4967234608  -29.6135016798    8.9261794246     2.96948433963    151.934915397   -43.0371269447    92.6595944123   -29.511820241     10.9856905485
4979030152  -29.6557344632    8.48976548873   -1.61920718393    83.8281985486   -42.0181289048    49.0365486791   -29.6279122007    9.29472467216
4990825696  -29.6980867421    8.53338515852   -4.84519794512    43.712240405    -43.6926623553    8.50134949439   -29.767735716     8.71800453499
5002621240  -29.6910351716    8.51684310257   -6.23856127827    11.5802851444   -43.2746891647   -38.6729071219   -29.801594824     8.68135445938
5014416784  -29.6499802338    8.37157428587   -6.29077162704   -19.076760248    -42.5533733527   -82.5214902043   -29.7844282131    8.59028068489
5026212328  -29.6163388548    7.87882568611   -5.11594526492   -50.4275823809   -43.7039568915   -142.625123058   -29.7619253653    8.2621156454
5038007872  -29.6344874038    7.32377720772   -2.38981062339   -85.5550314123   -41.6919331852    170.01205561    -29.7760030462    7.91175703205
5049803416  -29.6716804255    7.34237168392    2.47777025696   -136.20765146    -42.7384118688    124.465189027   -29.8204283054    8.21438026749
5061598960  -29.5771340109    6.76112034469    4.18227693299    130.466534948   -41.7232785919    79.9287357449   -29.6052668707    8.11507097782
5073394504  -29.7247732123    6.17213516927   -0.957621402745   67.5408826303   -41.4494236128    30.6049680379   -29.7003363443    6.85255174471
5085190048  -29.7739172527    6.57593673809   -4.26518860148    28.7448410066   -44.118939457    -25.097024106    -29.7736750751    6.93157088177
5096985592  -29.7377454401    6.48712566814   -5.79475173699   -49.9916236973   -43.4870995125   -62.1463731833   -29.7503062566    6.76404821511
5108781136  -29.730281191     5.7984515642    -5.90941447515   -126.927191089   -42.3328363136   -104.530190799   -29.7656780957    6.27059504956
5120576680  -29.7907080227    5.52978737677   -4.73556588901    154.896289833   -42.551141139    -140.343667711   -29.8371180383    6.43833466167
5132372224  -29.7361872864    5.51385226952   -2.07766385632    71.7144036704   -40.7442412015    168.802943906   -29.746299361     7.02099522236
5144167768  -29.8205299441    4.10381908617    1.89847289469   -28.4152132022   -41.0517870756    119.821776201   -29.7008676753    6.0162247309
5155963312  -29.8496862258    5.76477121786    2.34703417863   -155.168916458   -41.1278939821    60.217436032    -29.6170194576    6.58343564815
5167758856  -29.7773008161    4.59992051158   -1.45762479647    102.080128516   -42.0117976082    2.78164769777   -29.6599202237    4.66304158667
5179554400  -29.8057438542    4.75425420192   -4.05115121315    18.5826242136   -41.0134864294   -45.6542829726   -29.8180258486    4.76102248532
5191349944  -29.7693899405    4.49035093035   -5.35806983171   -15.3120132742   -42.7098428416   -96.5037955679   -29.7084807424    4.7871905201
5203145488  -29.7660231965    3.98158233221   -5.43294744088   -46.2398369519   -40.9206574878   -130.551681233   -29.6374410205    4.81258668407
5214941032  -29.8335823631    3.28742306383   -4.27811025541   -78.5214635812   -39.461440442     175.393515931   -29.6367376877    4.9399976601
5226736576  -29.9788111231    3.17493947199   -1.66127106922   -115.697026376   -37.849646729     136.047024982   -29.6377139761    5.81932256328
5238532120  -29.9501845813    4.49383393095    2.51109908724   -169.811975795   -37.7756832202    70.9769805765   -29.4078895578    6.66710805843
5250327664  -29.8414612237    3.26168962505    3.17006376422    104.980939544   -39.5629477896    7.54166297789   -29.4436889134    3.95380926911
5262123208  -29.8859203778    3.25505309843   -1.06594201596    45.2608490514   -42.8274966418   -29.4832626496   -29.7190976521    3.76283842547
5273918752  -29.8673290408    3.06229409505   -3.91560367367    5.92298202955   -42.9586986578   -70.232888257    -29.8892358839    3.11791741778
5285714296  -29.8626308723    2.68846281054   -5.02294657478   -28.2311518698   -44.3569732342   -94.6913238821   -30.0516965335    1.67999512035
5297509840  -29.8862172365    2.26032132472   -4.87158253888   -60.9952019706   -45.0282969977   -140.624049186   -30.1214763829    0.300223379008
5309305384  -29.9379033156    2.0123664046    -3.51715750269   -95.1530902047   -45.2360045477   -160.755562688   -30.1571543652   -0.732229176026
5321100928  -30.0219990003    2.13633857013   -0.82734905771   -135.342105549   -43.2184726732    150.80018152    -30.2212447814   -1.26886876037
5332896472  -29.9240350132    3.2188649314     2.74643939294    165.830840969   -38.4932238992    102.154819399   -30.2134921221   -0.346782321633
5344692016  -29.8452045184    0.680676863563   2.18285411373    87.7388753238   -38.3877133348    26.5667140155   -30.1497609272   -1.15069388684
5356487560  -30.0416302029    0.970248271585  -1.42428376965    34.2915324095   -41.8139241837   -31.6120079494   -30.1620473669    0.374378917508
5368283104  -30.0428551949    1.01359827395   -3.94714307399   -3.39620734816   -44.8430701158   -88.4959735703   -30.040534617     1.08129813187
5380078648  -30.0210047749    0.971290974773  -5.06344967256   -36.3180380473   -43.8946304665   -108.647946898   -30.0025288312    0.8306009885
5391874192  -30.0130328616    0.85362471632   -5.0483514796    -68.7301665892   -45.3258439052   -144.11735687    -29.986740795     0.286867516333
5403669736  -30.0098021643    0.767682076463  -3.8939049274    -102.708443318   -42.920334251    -170.593015814   -29.9814979882   -0.339785094301
5415465280  -30.0152868949    0.899522360162  -1.47347032395   -142.849955198   -39.9171516704    150.06924066    -30.016761647    -1.00364864094
5427260824  -29.7783702183    0.89746591883    1.75338068385    160.300287688   -36.7022340744    79.6435728704   -30.0103406005   -1.78147208745
5439056368  -30.0522539831   -1.98042581644    1.64155600723    84.5824150932   -39.3115012092   -1.38412164284   -30.3787630432   -1.93415756311
5450851912  -30.2619788159   -0.564061187194  -1.65212406915    28.454846212    -41.5988412943   -53.4939090721   -30.2992592864   -0.309971192172
5462647456  -30.2462960419   -0.135591698661  -4.08850608482   -12.0342584693   -46.1618301676   -86.9372969172   -30.1595940385   -0.440993230082
5474443000  -30.1723284249   -0.418789545047  -5.00472342294   -46.2597646537   -45.5927596487   -116.110975766   -30.1470457188   -1.29244853744
5486238544  -30.1264031139   -0.837380881076  -4.74054654302   -78.8902513732   -45.8700375469   -153.143949062   -30.1635839238   -2.29837609709
5498034088  -30.1316341893   -1.06282745377   -3.28102158349   -113.167804973   -43.6521199707    144.916173124   -30.1956420066   -3.09447657482
5509829632  -30.0982833797   -0.958140261853  -0.440174894393  -154.494736504   -42.2490110572    108.771837153   -30.1817202443   -3.61318306927
5521625176  -29.9531005128   -2.29241298725    2.78624127736    142.946385139   -41.7321359778    20.0006252417   -30.0901265591   -4.81765606903
5533420720  -30.2364318799   -2.97691630255    1.36021386482    67.8829091643   -43.1625919204   -16.8425269653   -30.305473358    -4.9091435641
5545216264  -30.2937336126   -2.32287047373   -2.09482752666    17.7638921735   -44.7896440474   -69.7733088155   -30.3262675436   -3.63429736108
5557011808  -30.3016412853   -2.47106567678   -4.26765028129   -19.1136538662   -43.8995672072   -92.8030336077   -30.3452292861   -2.62905570579
5568807352  -30.32517238     -2.8858422176    -5.33568142701   -53.445501533    -46.1669695467   -126.685563993   -30.3434415834   -1.91809157726
5580602896  -30.363749416    -3.23011754104   -5.26699020144   -87.3814436362   -44.0122003322   -156.796272333   -30.2942461746   -1.17445677108
5592398440  -30.419470773    -3.34359176597   -4.05400468779   -123.894736504   -45.1384455162    176.033172965   -30.1927635692   -0.094477843388
