! Micran, Research & Production Company
! Date: 2025-04-17 14:09:09
! Frequency	S11	S21	S12	S22
# Hz S dB R 50
4000000000  -29.6406328396    30.1192998646   -27.0553548994   -6.33547306305   -35.9842257279   -97.8434164416   -28.51817162      40.1278536418
4011795544  -29.6592235598    29.8910941551   -24.6376057239   -33.953218739    -42.2885249936   -47.0281160215   -29.9871819414    32.2728395282
4023591088  -29.7023255947    29.7842634908   -19.5595941498   -61.0691053903   -48.3337564557   -81.8094664457   -29.8332341064    30.5275654845
4035386632  -29.3496813211    32.5461708591   -4.59504846424   -163.795130128   -49.2858568979   -95.9889263934   -29.7192182577    29.7723885339
4047182176  -29.4735548369    28.6208005557   -18.7754250724    90.8472534184   -51.3062332575   -103.987134185   -29.5841240478    29.2730768196
4058977720  -29.5153071887    28.6441858454   -23.6400425606    63.3708894718   -50.2987986915   -121.534836691   -29.4372542783    28.3262704136
4070773264  -29.5289164731    28.5528081379   -25.4158888992    37.233561284    -51.069293139    -164.838687211   -29.3007511866    27.1138995618
4082568808  -29.5360759314    28.3242172655   -25.8781447417    13.602376911    -49.8745029526    168.857575083   -29.1961461258    25.2393634185
4094364352  -29.5363024704    27.9169158357   -24.8839309091   -13.1361531368   -44.0878673314    111.210974797   -29.478878265     21.7628888432
4106159896  -29.5258564889    27.3145197665   -22.1351667598   -37.8722604097   -42.6596745996    8.82560997712   -29.9245059276    27.6488351553
4117955440  -29.4849324015    25.9185965483   -15.8244843805   -69.4560192306   -45.9344670378   -68.0038413144   -29.3084593571    27.8711038405
4129750984  -30.4889734366    28.9360060853   -5.03107790438    152.251511181   -49.0455827718   -82.3387278998   -29.1015964962    26.8241056029
4141546528  -29.5410959799    28.1071550116   -17.8478541305    86.9897401608   -49.1276026294   -109.056442723   -29.269653889     25.4434033768
4153342072  -29.4607277314    27.2881792528   -22.5820731181    56.3049031265   -46.9122438024   -139.168821643   -29.4424892385    22.7216044636
4165137616  -29.4413471813    26.7371218006   -24.2169759789    31.2077945693   -46.4276049544   -145.242634266   -29.1947878652    19.6605754193
4176933160  -29.4345848574    26.264966034    -24.656604051     5.63350853182   -37.7966737148   -164.009035185   -27.6777635977    19.6408288941
4188728704  -29.4476366267    25.8485168472   -23.4024282904   -19.8892917107   -36.3911239555   -70.2521158931   -30.3241766932    40.0782555728
4200524248  -29.4624811114    25.3128627019   -20.4819079257   -46.2027941195   -46.8560337994   -76.6351900363   -30.5690674832    25.8473695094
4212319792  -29.5147206766    24.6051944414   -14.0376308575   -79.5562151827   -48.2557623363   -74.7843364365   -30.0947115973    23.7424522315
4224115336  -29.5876062533    26.646447631    -6.33431125724    137.216610725   -52.9275577127   -99.3043612123   -29.8251023256    24.6538444279
4235910880  -29.4538640601    25.2410451659   -17.5289281712    81.1777148464   -53.4533115148   -122.899673779   -29.6839947625    26.1656721087
4247706424  -29.4616770952    24.8800828671   -21.511621859     53.4433459015   -51.6964409508   -138.69194411    -29.5563150652    26.7595838517
4259501968  -29.4737602873    24.6170805529   -23.0033361381    27.4359197301   -44.8055131312    168.130378574   -29.4003116008    27.5773285855
4271297512  -29.4927930045    24.3801820472   -23.1593411546    1.93763304574   -40.3955778634    112.462541558   -28.704284343     28.4799851963
4283093056  -29.5207386362    24.3222597465   -21.9102469391   -23.9419446803   -39.7816567949   -7.3646005841    -29.1905734103    21.7329032403
4294888600  -29.5330387065    24.3849105341   -18.7962234621   -51.4310965364   -47.551855622    -49.8018955706   -29.3869185094    23.0857714126
4306684144  -29.5050331641    25.2605912505   -11.6495823618   -89.2482367463   -52.3360761099   -98.8498420868   -29.4092896052    23.2211638801
4318479688  -29.182599575     21.6017442336   -8.39996985816    125.929889648   -52.4124921541   -106.811564975   -29.4369341496    22.890746852
4330275232  -29.449331363     22.212937317    -17.9244478431    77.8956849807   -50.3762361511   -130.554505234   -29.4860754437    22.5821533271
4342070776  -29.4685273897    22.3739104985   -21.6514636048    50.1271035188   -50.3784022176   -152.687462962   -29.613954188     22.5975142021
4353866320  -29.4730403621    22.318690862    -23.1518756197    26.1649269697   -45.803143501    -164.720350938   -29.8300460871    22.6893169275
4365661864  -29.4739497604    22.1938059081   -23.0839299767    1.19537066267   -43.2331671319   -162.432984892   -30.4449431298    22.1005270655
4377457408  -29.4739760176    22.1459437908   -21.5580534957   -22.7563545996   -34.1592157693   -83.9240560379   -29.3949134151    11.7646788535
4389252952  -29.4671321755    22.0127225099   -18.029379788    -49.1826912411   -44.7996496801   -90.0740375406   -29.2978213271    18.5531938941
4401048496  -29.3908732642    22.2453274942   -9.54719531993   -90.1007377009   -51.1145835986   -110.830228609   -29.4831924186    19.7162896476
4412844040  -29.4472153607    20.2484768798   -10.0292458282    122.383307056   -49.5332466602   -123.961608904   -29.6320046623    20.1856837092
4424639584  -29.489521752     20.560785478    -17.809573598     82.7175504821   -48.8899043412   -130.894061828   -29.7076567567    20.6514363146
4436435128  -29.4808319677    20.4890432633   -20.9678105433    55.6293997191   -49.5311081611   -172.617474021   -29.774613851     21.5036044996
4448230672  -29.4670400744    20.3560121355   -22.2815038422    31.9317442836   -43.8150607486    162.701858291   -30.0473546754    23.8235110134
4460026216  -29.4523526737    20.4659981453   -21.8159263946    7.66408833378   -25.1611941111   -103.441574706   -32.0021584913   -53.7824332527
4471821760  -29.4340676346    20.1124422811   -19.91645642     -17.2978789278   -43.8355875949   -82.0994631531   -29.0235768832    14.6825138931
4483617304  -29.3904095745    19.9832267039   -15.7665226315   -45.7534768905   -48.658907751    -75.5951759871   -29.2551691528    16.9647341512
4495412848  -29.2277110926    19.3135467476   -6.84727332846   -99.3043013438   -51.096528452    -114.14853353    -29.3569634204    17.6128873745
4507208392  -29.5112485299    18.5175100875   -10.1123586713    132.562254492   -52.5151170355   -121.194087374   -29.4715947322    17.9229144975
4519003936  -29.4766223507    18.8879791065   -16.3335298528    94.6892139813   -51.8806874199   -159.591644794   -29.5845770987    18.0051816794
4530799480  -29.4598882335    18.7589217916   -18.8049231478    68.7333299072   -49.9200695836   -178.127013153   -29.7386816646    17.7863763202
4542595024  -29.4521072414    18.5457815489   -19.4805579283    43.8814511059   -46.8883840582    156.897729338   -30.0172414441    16.9327821341
4554390568  -29.4442226098    18.2504016232   -18.621185013     18.7658465855   -37.9495619142    119.664345477   -31.2613949629    14.8672794643
4566186112  -29.4618461263    18.1532392079   -16.3142630653   -7.84548962043   -37.5649705618   -42.1593228299   -28.406723322     27.4884771636
4577981656  -29.4292611438    17.8155731734   -11.7871064858   -39.7261687342   -47.8959037227   -120.881604576   -29.0633592601    19.9925252435
4589777200  -29.384388094     16.9270535712   -2.60809644683   -107.507061954   -50.7211012637   -123.598970438   -29.2574663638    17.8713567512
4601572744  -29.5397347762    17.0040137178   -7.84229328754    136.32724088    -51.06147295     -179.684858722   -29.3639561239    16.441166364
4613368288  -29.5209812511    16.9159808175   -13.0071840533    97.7550385874   -50.9912985767    155.191986964   -29.484754292     14.8823070529
4625163832  -29.506830789     16.6888826664   -15.0694268164    68.5807318205   -51.9459867663    124.4922216     -29.7293401671    12.8675878899
4636959376  -29.4919442515    16.4148164169   -15.5074061264    40.8215729259   -43.7947211857    85.832429884    -29.8979631061    8.8106529065
4648754920  -29.5007088432    16.1410926515   -14.4627138746    14.0194760535   -36.8944023233    21.4534632607   -31.3708806489    2.41043125951
4660550464  -29.4548283303    16.0838933621   -11.9573657888   -15.0560850934   -41.5828589979   -86.3717779272   -31.3204073409    14.6945127996
4672346008  -29.3988242601    15.5864618013   -6.89126318088   -50.83213554     -47.6338774902   -116.298104771   -30.5279219611    14.4544945166
4684141552  -29.4907251126    13.7733362702    1.47505612094   -135.798532331   -47.7936577855   -172.633509976   -30.0909480982    14.1497078647
4695937096  -29.5876505668    15.1696342122   -5.1734480185     127.301929702   -49.1641353582    167.243251293   -29.6395278658    15.599508797
4707732640  -29.5230101201    15.0262192229   -9.69432656643    89.8792117785   -50.2822468327    112.741881212   -29.1911264652    17.4171268615
4719528184  -29.5046440457    14.6552559597   -11.6425791685    59.9391264145   -45.5920944239    78.6424799532   -28.7032344072    18.3434290299
4731323728  -29.5232546526    14.3007031243   -11.9551075722    31.1532319142   -38.3283007877    14.2033932626   -28.06128549      18.9744768847
4743119272  -29.5084310839    14.3486924551   -11.0133704051    1.89558965331   -38.1703921335   -67.388307499    -27.7985410995    13.1306949646
4754914816  -29.4680477529    13.9945590249   -8.51627329503   -29.6431916746   -46.4062491593   -113.08025532    -28.6537558563    13.0171507648
4766710360  -29.4231233103    13.4884204593   -3.68193219307   -69.6036810756   -45.8577742297   -179.228153782   -29.0164723979    14.2790574651
4778505904  -29.4418466446    12.2479170513    2.70993334505   -157.484899003   -47.4148353152    143.087834449   -29.333161681     14.7189937247
4790301448  -29.5709197468    12.4402596845   -3.09580275436    115.287746833   -48.6961398995    107.328347645   -29.5037541184    13.9229970298
4802096992  -29.5782820875    12.4420431883   -7.20574889113    74.8819584226   -47.7014102308    87.1315970095   -29.6989714549    12.5963861132
4813892536  -29.587477792     12.3248508588   -8.90003481796    43.5804868436   -46.5707178812    42.6113691915   -29.8521893323    13.0499536455
4825688080  -29.5985427105    12.2984359767   -9.08778019598    13.620906969    -44.4989330557   -11.0927250224   -29.8960791932    14.4455701779
4837483624  -29.5750101679    12.3894824297   -7.97009062164   -16.4591000901   -40.2739276781   -70.0915604653   -29.6109412748    15.3655073737
4849279168  -29.5186044452    12.0252870501   -5.31871658625   -49.4527278911   -41.1918635435   -133.119141157   -29.3940578159    13.4114169961
4861074712  -29.508166745     11.5929666927   -0.123658735634  -93.4637693471   -45.4101308613   -169.5174017     -29.5196325497    11.5965406067
4872870256  -29.5020202685    11.2058324058    4.13274090378    168.85867347    -45.4326839633    111.690376371   -29.6709497553    11.732773488
4884665800  -29.5638174004    10.7667480102   -1.99571334231    96.6844598681   -45.5788950072    94.4797813447   -29.7382881745    11.2749789085
4896461344  -29.6067668012    10.5159304469   -5.68564009787    58.8324332869   -44.5431398647    41.8266863931   -29.8482793361    11.7060609668
4908256888  -29.6321530076    10.4469287135   -7.43449327576    26.3046871394   -44.3746925861   -0.135192129711  -29.9837770903    13.1246056909
4920052432  -29.6265460064    10.5001674624   -7.71139719854   -4.1157939318    -39.9627534852   -52.243901169    -29.9658608907    14.9523814337
4931847976  -29.569587517     10.2002257601   -6.71037084944   -35.7313699926   -41.5258417044   -106.207622051   -29.6345797563    15.5463885419
4943643520  -29.5349636963    9.43921254768   -4.18906403924   -70.8757456539   -38.2454251543   -159.646404877   -29.3574020451    13.6479535426
4955439064  -29.6604317452    9.13716598903    0.393483387431  -118.942919017   -37.8242961836    125.243099953   -29.5384569225    11.7309505429
4967234608  -29.622122151     8.89712409411    3.20795002889    151.592992158   -43.7560806672    97.2188014959   -29.5151646859    10.95032196
4979030152  -29.6534952629    8.46276036307   -1.53009865467    83.3197253257   -41.3301625194    48.5936637339   -29.6242153827    9.22786622291
4990825696  -29.698351876     8.49997811191   -4.72540689072    43.5218794208   -42.6719021376    13.6506553174   -29.7688407365    8.69826009389
5002621240  -29.68993347      8.52496167162   -6.16214387768    11.5526162697   -43.5077030973   -41.3036438972   -29.8015465403    8.65255638977
5014416784  -29.650896837     8.36188836873   -6.22147702269   -18.9860994579   -43.1719860495   -81.5899229119   -29.7864652062    8.5848820343
5026212328  -29.6116807658    7.88026593799   -5.03617852673   -50.0304626535   -42.6126981983   -141.730759822   -29.7544863866    8.27590365298
5038007872  -29.6225354415    7.37013179132   -2.27455419463   -84.9018979127   -42.8181886159   -177.262898969   -29.7679994625    7.96234334022
5049803416  -29.68944098      7.35982346417    2.67350021485   -135.433808403   -41.1194130326    125.199579266   -29.8367947519    8.22932013405
5061598960  -29.5892176617    6.66001602711    4.47445867695    130.08831673    -43.3136551726    77.9124704624   -29.6148358152    8.04182675411
5073394504  -29.7350498179    6.21435614114   -0.829806909334   66.8868370407   -42.6310216956    23.2668494878   -29.7086012743    6.92300114742
5085190048  -29.7875920874    6.56675157741   -4.18257576305    28.4033688664   -41.3011106536   -24.1002435833   -29.7860945299    6.89215958408
5096985592  -29.7380715125    6.49919973698   -5.71292552776   -50.0460724194   -43.1475573925   -60.778832695    -29.7512214461    6.77801581685
5108781136  -29.7291649631    5.85074575607   -5.81495602118   -126.755348644   -43.7256572223   -93.3070045953   -29.7642361128    6.30987953509
5120576680  -29.7950553402    5.49664513284   -4.64232358911    154.993691425   -41.3871370724   -135.241219959   -29.8400484789    6.4183744157
5132372224  -29.7344443881    5.52886908192   -1.96954574181    72.1092408723   -40.5080531566    168.354527045   -29.7473756985    7.04758381471
5144167768  -29.8231241402    3.98092794302    2.05024205497   -27.7921794757   -39.7635805764    117.381184162   -29.7021052846    5.91150188475
5155963312  -29.840878134     5.82915079016    2.51386297602   -155.317596442   -40.4631146135    55.943272737    -29.602195522     6.63303402313
5167758856  -29.7686915647    4.50962349659   -1.3809827252     101.807569858   -40.0049779131    6.34936682493   -29.6513591078    4.57761625655
5179554400  -29.8032077651    4.70729261885   -3.96179214555    18.3120376406   -42.0275028867   -38.5233024904   -29.8165312104    4.69948573118
5191349944  -29.7747249342    4.49084764199   -5.27419210785   -15.1813764811   -43.1581616402   -87.374680673    -29.7138165552    4.76398278149
5203145488  -29.7680033527    3.99422720348   -5.35381369429   -46.3539205457   -41.4330650407   -127.114955977   -29.6390670476    4.81683799321
5214941032  -29.8168327972    3.35217269628   -4.18784012045   -78.1191466      -40.3389596296   -164.935082861   -29.618423199     5.02469146051
5226736576  -29.989663026     3.17193136258   -1.58670254042   -115.102367284   -37.0393672375    133.011415931   -29.6489303       5.77779606059
5238532120  -29.9466896416    4.39911980772    2.6821502596    -169.039426992   -38.6302826698    66.8563945773   -29.3990567417    6.68926794686
5250327664  -29.8151049927    3.18050064546    3.40454193498    104.757155232   -38.2675208511    14.325165832    -29.4267039752    3.83099128727
5262123208  -29.8895954757    3.20017991478   -0.922734899564   44.8398218537   -41.8822465112   -22.7673418697   -29.7244885628    3.68386633996
5273918752  -29.8612103743    3.04095889258   -3.82612684706    5.84776739547   -44.1973555973   -76.3284987045   -29.8804529155    3.08137053007
5285714296  -29.8633577372    2.62887299714   -4.94378518461   -28.1752463835   -46.9910606596   -105.155328949   -30.0493996434    1.60544262977
5297509840  -29.8921898065    2.30153283512   -4.79881469169   -60.8170944879   -47.8991989016   -129.40373265    -30.1259993373    0.335180588718
5309305384  -29.9382612174    1.93651624835   -3.4219505246    -94.7143842646   -42.7541021021   -165.015229278   -30.1563589049   -0.800443154265
5321100928  -30.0257791158    2.25187679668   -0.693287129483  -134.798895267   -43.1841504695    131.86695659    -30.2244097637   -1.14113892682
5332896472  -29.8930654506    2.99021417901    2.97684856298    166.195351237   -40.7580839089    84.3471086642   -30.1738503981   -0.579253008509
5344692016  -29.8732216432    0.789029326167   2.38168699449    87.4279362884   -40.4941005654    16.2998014684   -30.1852683489   -1.03492512649
5356487560  -30.0446763515    0.960783959967  -1.32021937355    33.8783291972   -41.4948336473   -30.6412194728   -30.1643325291    0.366124644967
5368283104  -30.0457503655    1.01883244792   -3.85270701048   -3.64429498392   -44.6547422059   -83.5547167547   -30.0432290063    1.08991062628
5380078648  -30.0208954206    0.914341061844  -4.97204299143   -36.4194497562   -45.0447072709   -123.914117271   -30.0020310194    0.772966479284
5391874192  -30.0123813385    0.803055136418  -4.97751623416   -68.6479555135   -43.6873855882   -154.733968662   -29.9854009259    0.240363350653
5403669736  -30.0119983841    0.795518209955  -3.80534563912   -102.441514537   -43.8446472773   -173.689589783   -29.9816678278   -0.317628536415
5415465280  -30.0108083635    1.04321455773   -1.34915353698   -142.348233266   -40.5564657171    133.010674775   -30.0110173431   -0.84542417683
5427260824  -29.815689179     1.09345254861    1.95816338039    160.783914779   -36.2836435253    97.0257982703   -30.0616548119   -1.59792286208
5439056368  -30.0851965872   -2.19711927855    1.83112933358    84.5587723046   -37.1410528757   -13.1330988167   -30.4169103685   -2.15219643573
5450851912  -30.2441344232   -0.532405810497  -1.48887553393    27.995783878    -44.0948220365   -68.8197659327   -30.280506149    -0.278962975468
5462647456  -30.2483502763   -0.0837235645344 -3.97803380206   -11.8583554256   -44.2927758813   -82.4091429112   -30.1603238932   -0.396793864199
5474443000  -30.173211577    -0.444959903942  -4.92025767863   -46.1520010998   -46.2420450908   -126.941018486   -30.1461674669   -1.32079480729
5486238544  -30.1396097758   -0.903550801383  -4.62820896834   -78.5916950869   -44.2329615064    173.165179562   -30.1790679737   -2.36292191957
5498034088  -30.1241496868   -1.07629491683   -3.17470417425   -112.792994926   -44.6772821642    155.429129727   -30.1872009969   -3.11664518052
5509829632  -30.0853313445   -0.889878535758  -0.313666320085  -154.167920609   -42.3807007163    95.0237988177   -30.1713314282   -3.51331251241
5521625176  -29.9401840319   -2.23011412496    3.01893828478    143.467725027   -41.3895152381    26.4945213814   -30.0820358487   -4.74644774281
5533420720  -30.2565454373   -2.88289007439    1.5500205096     67.5700652799   -42.8639921551   -36.5954996707   -30.3245811043   -4.78355898499
5545216264  -30.2934240312   -2.3201438659    -1.98577863592    17.4808483889   -44.8633937957   -71.3910067073   -30.322886097    -3.6291153752
5557011808  -30.3043369596   -2.50995645088   -4.17852290909   -19.2456859927   -45.7586548097   -92.5984611078   -30.3500714436   -2.67419128087
5568807352  -30.3278777185   -2.9126830397    -5.23784508116   -53.3099938502   -47.0574143049   -137.862450821   -30.3466764258   -1.96272008638
5580602896  -30.3675501934   -3.17667685188   -5.18852026148   -87.1813136949   -47.1173277056   -155.930676881   -30.3002741342   -1.13126861109
5592398440  -30.4281885688   -3.34983973054   -3.94784596707   -123.31389606    -43.5642371044    166.105613606   -30.2031582741   -0.0897222469736
